! 
! FILENAME MUT_1mm_TG
# Hz S RI R 50
 8200000000	          -0.7793884	          -0.2577209	           0.1964569	          -0.4644318	           0.1972351	          -0.4647064	          -0.7542419	          -0.2727051
 8221000000	          -0.7792358	          -0.2563477	           0.1964264	          -0.4653168	           0.1971893	          -0.4656067	          -0.7535706	          -0.2729797
 8242000000	          -0.7792664	          -0.2555237	           0.1964417	          -0.4662933	           0.1971588	           -0.466629	          -0.7531128	           -0.273407
 8263000000	          -0.7789917	          -0.2542419	           0.1964417	          -0.4670715	           0.1971436	           -0.467453	          -0.7523804	          -0.2735901
 8284000000	          -0.7790527	          -0.2531433	           0.1963959	          -0.4678955	            0.197052	          -0.4682922	          -0.7518616	          -0.2739868
 8305000000	           -0.778717	          -0.2521057	           0.1962738	          -0.4686584	           0.1970215	          -0.4690552	          -0.7513733	           -0.274231
 8326000000	          -0.7788086	          -0.2511292	           0.1963043	          -0.4695129	            0.196991	          -0.4699402	           -0.750946	          -0.2746277
 8347000000	          -0.7785034	               -0.25	           0.1961975	          -0.4701843	           0.1968842	          -0.4706879	          -0.7505188	          -0.2747803
 8368000000	          -0.7785339	          -0.2490845	           0.1961823	          -0.4710541	           0.1968079	          -0.4715271	          -0.7502136	           -0.275177
 8389000000	          -0.7784424	          -0.2479858	           0.1961212	          -0.4717712	           0.1967773	          -0.4722443	          -0.7498474	          -0.2754822
 8410000000	          -0.7783813	          -0.2471008	           0.1960449	          -0.4724731	           0.1966858	          -0.4729919	          -0.7495422	          -0.2757874
 8431000000	          -0.7782288	          -0.2459412	           0.1959534	          -0.4731598	           0.1965485	          -0.4736938	          -0.7492981	           -0.276062
 8452000000	          -0.7781677	          -0.2450256	           0.1958466	           -0.473877	           0.1964569	          -0.4744415	           -0.749054	          -0.2763672
 8473000000	          -0.7780151	          -0.2440186	           0.1957245	           -0.474472	           0.1963196	          -0.4750366	          -0.7488403	          -0.2765503
 8494000000	          -0.7779846	          -0.2431335	           0.1956482	          -0.4752197	           0.1962433	          -0.4757843	          -0.7486877	          -0.2770081
 8515000000	          -0.7776794	          -0.2419739	           0.1955261	          -0.4758453	           0.1960449	          -0.4764252	          -0.7485046	          -0.2772522
 8536000000	          -0.7775879	          -0.2410889	           0.1953888	          -0.4765167	           0.1959229	          -0.4771118	          -0.7483826	          -0.2774658
 8557000000	          -0.7774353	          -0.2400818	           0.1952667	          -0.4771729	           0.1958008	          -0.4777832	          -0.7481995	          -0.2777405
 8578000000	          -0.7774048	          -0.2391663	           0.1951447	          -0.4778442	           0.1956482	          -0.4784851	          -0.7483215	          -0.2780762
 8599000000	          -0.7771912	          -0.2380371	           0.1950073	          -0.4784698	           0.1954651	           -0.479126	            -0.74823	          -0.2782288
 8620000000	          -0.7771606	          -0.2371521	           0.1948547	          -0.4791565	           0.1952972	          -0.4797668	            -0.74823	           -0.278595
 8641000000	          -0.7769165	           -0.236145	           0.1946716	          -0.4797211	           0.1951294	          -0.4803619	          -0.7482605	          -0.2787476
 8662000000	          -0.7767334	          -0.2351685	           0.1944885	          -0.4803467	            0.194931	           -0.480957	           -0.748291	          -0.2790527
 8683000000	          -0.7764587	          -0.2340698	           0.1942444	          -0.4809418	           0.1946411	          -0.4815826	          -0.7483215	          -0.2791748
 8704000000	          -0.7763062	          -0.2330933	           0.1940765	          -0.4815674	            0.194458	          -0.4822083	          -0.7483826	          -0.2794495
 8725000000	          -0.7761536	          -0.2321167	           0.1938782	          -0.4821777	           0.1942596	          -0.4828491	          -0.7485657	          -0.2796631
 8746000000	           -0.776001	          -0.2311096	           0.1936798	          -0.4827728	           0.1940002	          -0.4834747	          -0.7486877	          -0.2798462
 8767000000	          -0.7756653	          -0.2300415	           0.1934052	          -0.4833527	           0.1937256	          -0.4840546	          -0.7488098	          -0.2799683
 8788000000	          -0.7755127	          -0.2290649	           0.1931763	          -0.4839783	           0.1934967	          -0.4846649	          -0.7490234	          -0.2802124
 8809000000	           -0.775238	          -0.2280273	           0.1929169	          -0.4845276	           0.1931915	            -0.48526	          -0.7492371	          -0.2803345
 8830000000	          -0.7749939	          -0.2270508	            0.192627	          -0.4851074	           0.1929169	          -0.4858093	          -0.7493896	          -0.2804871
 8851000000	          -0.7747192	          -0.2260132	           0.1923981	          -0.4856873	           0.1925964	          -0.4864197	          -0.7496948	          -0.2806091
 8872000000	          -0.7744141	          -0.2249756	           0.1921234	          -0.4862671	           0.1923218	          -0.4869843	           -0.749939	          -0.2807617
 8893000000	          -0.7741699	          -0.2239685	           0.1918335	          -0.4868317	           0.1920319	          -0.4876099	          -0.7502441	          -0.2808838
 8914000000	          -0.7738342	          -0.2229614	           0.1915283	           -0.487381	           0.1916809	          -0.4881287	          -0.7505798	          -0.2809753
 8935000000	          -0.7734985	          -0.2218628	           0.1912079	          -0.4879456	           0.1913605	          -0.4886932	          -0.7509155	          -0.2810059
 8956000000	          -0.7731934	          -0.2208862	           0.1908722	          -0.4884796	            0.190979	           -0.489212	          -0.7512207	          -0.2810669
 8977000000	          -0.7728882	          -0.2198486	           0.1905365	          -0.4890137	           0.1906433	          -0.4897766	          -0.7516174	          -0.2811279
 8998000000	           -0.772522	          -0.2188416	           0.1902008	          -0.4895477	           0.1902771	          -0.4902954	          -0.7519836	           -0.281189
 9019000000	          -0.7721558	          -0.2177734	           0.1898499	          -0.4900818	           0.1898956	          -0.4908447	          -0.7523804	           -0.281189
 9040000000	          -0.7717285	          -0.2167358	           0.1894531	          -0.4905701	           0.1895142	          -0.4913177	          -0.7527466	           -0.281189
 9061000000	          -0.7713623	          -0.2157593	           0.1891022	          -0.4911041	           0.1891022	          -0.4918213	          -0.7531738	          -0.2811584
 9082000000	          -0.7709656	          -0.2147827	           0.1887207	          -0.4916229	           0.1887207	          -0.4923553	          -0.7536316	          -0.2810974
 9103000000	          -0.7704773	          -0.2137146	           0.1883087	          -0.4920807	           0.1882782	          -0.4928131	          -0.7540283	          -0.2810059
 9124000000	          -0.7701111	          -0.2127075	            0.187912	          -0.4925995	           0.1878662	          -0.4933167	          -0.7545166	          -0.2809448
 9145000000	          -0.7696533	           -0.211731	           0.1874847	          -0.4930573	            0.187439	          -0.4938049	          -0.7550049	          -0.2808228
 9166000000	          -0.7692261	          -0.2107544	            0.187088	          -0.4935608	           0.1869812	          -0.4942627	          -0.7554932	          -0.2807312
 9187000000	          -0.7687683	          -0.2097473	           0.1866608	          -0.4940338	           0.1865387	           -0.494751	          -0.7559814	          -0.2805481
 9208000000	            -0.76828	          -0.2088013	           0.1862488	          -0.4944916	           0.1860962	          -0.4951935	          -0.7564392	          -0.2803955
 9229000000	          -0.7677307	          -0.2078247	            0.185791	          -0.4949493	           0.1856079	           -0.495636	           -0.756958	          -0.2802124
 9250000000	          -0.7672424	          -0.2068787	            0.185318	          -0.4953766	           0.1851349	           -0.496048	          -0.7574463	          -0.2800293
 9271000000	          -0.7666931	          -0.2059021	           0.1848755	          -0.4958038	           0.1846619	          -0.4964752	          -0.7579651	          -0.2797546
 9292000000	          -0.7661743	          -0.2049866	           0.1844025	          -0.4962463	           0.1841583	          -0.4969025	          -0.7585144	          -0.2795105
 9313000000	           -0.765686	          -0.2040405	           0.1839294	          -0.4966736	           0.1837006	          -0.4973297	          -0.7590332	          -0.2792664
 9334000000	          -0.7651062	          -0.2031555	           0.1834564	          -0.4970703	           0.1831818	          -0.4977112	          -0.7595825	          -0.2789917
 9355000000	          -0.7645264	            -0.20224	           0.1829529	          -0.4974213	            0.182663	          -0.4980621	          -0.7601013	          -0.2786255
 9376000000	           -0.763916	           -0.201355	           0.1824646	          -0.4978485	           0.1821289	          -0.4984589	          -0.7606812	          -0.2783203
 9397000000	          -0.7633667	           -0.200531	           0.1819305	            -0.49823	           0.1816406	          -0.4988403	             -0.7612	          -0.2779541
 9418000000	          -0.7628174	           -0.199707	           0.1814423	          -0.4986115	           0.1811066	          -0.4991913	          -0.7617798	          -0.2776184
 9439000000	           -0.762146	           -0.198822	           0.1809235	          -0.4989624	           0.1805725	           -0.499527	          -0.7622681	          -0.2771606
 9460000000	          -0.7615967	          -0.1980286	           0.1804047	          -0.4993286	           0.1800385	          -0.4998627	          -0.7628174	          -0.2767639
 9481000000	          -0.7609863	          -0.1972351	           0.1799011	          -0.4996643	           0.1795044	          -0.5001831	          -0.7633972	          -0.2763062
 9502000000	           -0.760437	          -0.1964722	           0.1793823	                -0.5	           0.1789856	          -0.5005188	          -0.7639771	          -0.2759094
 9523000000	          -0.7597351	          -0.1956787	           0.1788025	          -0.5003052	           0.1784363	          -0.5007935	          -0.7644958	          -0.2754211
 9544000000	          -0.7590637	          -0.1949768	           0.1783142	          -0.5006104	            0.177887	          -0.5011292	          -0.7649841	          -0.2749329
 9565000000	          -0.7584229	          -0.1942444	           0.1777649	          -0.5009155	           0.1773376	          -0.5013733	          -0.7655029	           -0.274353
 9586000000	          -0.7578125	           -0.193573	           0.1772156	          -0.5012207	           0.1767883	          -0.5016785	          -0.7660828	          -0.2738647
 9607000000	          -0.7571716	          -0.1928711	           0.1766968	          -0.5014954	            0.176239	          -0.5019531	          -0.7666016	          -0.2732849
 9628000000	          -0.7565308	          -0.1922302	           0.1761475	            -0.50177	           0.1756592	          -0.5021973	          -0.7671204	          -0.2727356
 9649000000	          -0.7558899	          -0.1916199	           0.1755981	          -0.5020447	           0.1751099	          -0.5024414	          -0.7676392	          -0.2721558
 9670000000	          -0.7552795	          -0.1910095	           0.1750488	          -0.5022888	           0.1745605	          -0.5026855	           -0.768219	          -0.2715759
 9691000000	          -0.7546387	          -0.1903992	           0.1744995	           -0.502533	           0.1740112	          -0.5029297	          -0.7686768	          -0.2709351
 9712000000	          -0.7539978	          -0.1898499	           0.1739502	          -0.5028076	           0.1734314	          -0.5031433	          -0.7691956	          -0.2703247
 9733000000	           -0.753418	          -0.1893005	           0.1734009	          -0.5030212	           0.1729126	          -0.5033569	          -0.7697144	          -0.2696533
 9754000000	          -0.7528076	          -0.1888428	           0.1728516	          -0.5032654	           0.1723328	          -0.5035706	          -0.7702332	          -0.2690125
 9775000000	          -0.7521667	          -0.1882935	           0.1723022	          -0.5034485	           0.1717834	          -0.5037231	          -0.7706909	          -0.2683105
 9796000000	          -0.7515869	          -0.1878357	           0.1717224	          -0.5036621	           0.1712341	          -0.5039368	          -0.7712097	          -0.2676392
 9817000000	           -0.750946	          -0.1873779	           0.1711731	          -0.5038452	           0.1706848	          -0.5040894	           -0.771698	          -0.2669373
 9838000000	          -0.7503662	          -0.1869812	           0.1706238	          -0.5040283	           0.1701355	          -0.5042725	          -0.7721863	          -0.2662659
 9859000000	          -0.7497864	           -0.186554	           0.1700745	          -0.5042114	           0.1695862	           -0.504425	           -0.772583	          -0.2655334
 9880000000	          -0.7492371	          -0.1862183	           0.1695557	           -0.504364	           0.1690369	          -0.5045776	          -0.7730408	           -0.264801
 9901000000	          -0.7486877	          -0.1858521	           0.1690063	          -0.5045776	           0.1684875	          -0.5047607	          -0.7734985	          -0.2640686
 9922000000	          -0.7481079	          -0.1855469	            0.168457	          -0.5046997	           0.1679688	          -0.5048828	          -0.7739563	          -0.2633362
 9943000000	          -0.7475586	          -0.1852112	           0.1679077	          -0.5048523	           0.1674194	          -0.5050049	          -0.7743835	          -0.2625427
 9964000000	          -0.7470398	           -0.184967	           0.1673584	          -0.5050049	           0.1668701	           -0.505127	          -0.7747803	          -0.2618103
 9985000000	          -0.7465515	          -0.1846924	           0.1668396	           -0.505127	           0.1663513	           -0.505249	          -0.7752075	          -0.2609863
1.0006e+010	          -0.7460632	          -0.1844788	           0.1662903	          -0.5052795	           0.1658325	          -0.5053711	          -0.7756348	          -0.2602234
1.0027e+010	          -0.7456055	          -0.1842346	           0.1657715	          -0.5053711	           0.1652832	          -0.5054626	          -0.7760315	          -0.2593994
1.0048e+010	          -0.7451477	          -0.1840515	           0.1652222	          -0.5055237	           0.1647644	          -0.5055847	          -0.7763977	          -0.2586975
1.0069e+010	          -0.7446289	          -0.1838684	           0.1647034	          -0.5056152	           0.1642456	          -0.5056458	          -0.7767639	           -0.257843
 1.009e+010	          -0.7442627	          -0.1837158	           0.1641846	          -0.5057068	           0.1637573	          -0.5057678	          -0.7771912	          -0.2570496
1.0111e+010	          -0.7438354	          -0.1835938	           0.1636963	          -0.5057983	           0.1632385	          -0.5058289	          -0.7775269	          -0.2562256
1.0132e+010	          -0.7434998	          -0.1834412	           0.1631775	          -0.5059204	           0.1627502	          -0.5059509	          -0.7779541	          -0.2554321
1.0153e+010	          -0.7430725	          -0.1833496	           0.1626587	           -0.506012	           0.1622314	           -0.506012	          -0.7782898	          -0.2545776
1.0174e+010	          -0.7427673	          -0.1832886	           0.1621399	           -0.506073	           0.1617432	           -0.506073	          -0.7786255	          -0.2537842
1.0195e+010	          -0.7424622	           -0.183197	           0.1616516	          -0.5061646	           0.1612549	          -0.5061646	          -0.7789307	          -0.2529907
1.0216e+010	           -0.742157	          -0.1831665	           0.1611633	          -0.5062256	           0.1607971	          -0.5062256	          -0.7792664	          -0.2521667
1.0237e+010	          -0.7419434	           -0.183136	            0.160675	          -0.5063477	           0.1603088	          -0.5063171	          -0.7796326	          -0.2513428
1.0258e+010	          -0.7416382	           -0.183136	           0.1601868	          -0.5064087	           0.1598206	          -0.5063477	          -0.7799683	          -0.2505493
1.0279e+010	           -0.741394	           -0.183075	           0.1596985	          -0.5064697	           0.1593628	          -0.5064087	          -0.7802429	          -0.2497253
  1.03e+010	           -0.741272	          -0.1831055	           0.1592102	          -0.5065613	           0.1588745	          -0.5064697	          -0.7806396	          -0.2489319
1.0321e+010	          -0.7411499	           -0.183136	           0.1587524	          -0.5066223	           0.1584473	          -0.5065613	          -0.7809448	          -0.2481384
1.0342e+010	          -0.7409668	          -0.1831665	           0.1582947	          -0.5066833	           0.1579895	          -0.5065918	          -0.7812195	          -0.2473145
1.0363e+010	          -0.7408752	           -0.183197	           0.1578369	          -0.5067444	           0.1575012	          -0.5066833	          -0.7815552	          -0.2464905
1.0384e+010	          -0.7407837	           -0.183197	           0.1573486	          -0.5068054	            0.157074	          -0.5067139	          -0.7818298	          -0.2456665
1.0405e+010	          -0.7407227	          -0.1832581	           0.1568909	          -0.5068665	           0.1566467	          -0.5067749	           -0.782135	          -0.2448425
1.0426e+010	          -0.7406921	          -0.1833191	           0.1564636	           -0.506958	            0.156189	          -0.5068359	          -0.7824402	          -0.2440186
1.0447e+010	          -0.7407532	          -0.1833801	           0.1560364	          -0.5070496	           0.1557617	          -0.5069275	          -0.7828064	          -0.2432251
1.0468e+010	          -0.7407837	          -0.1834412	           0.1555786	          -0.5070801	            0.155365	          -0.5069885	          -0.7831116	          -0.2424316
1.0489e+010	          -0.7408447	          -0.1835022	           0.1551208	          -0.5071411	           0.1549377	          -0.5070496	          -0.7833557	          -0.2416077
