! 
! FILENAME MUT_5mm
# Hz S RI R 50
 8200000000	          -0.4008789	           0.1641388	          -0.5871887	          -0.1890259	          -0.5870056	          -0.1894836	          -0.3347473	           0.1701508
 8221000000	          -0.3960114	           0.1570892	          -0.5923462	          -0.1806335	           -0.592041	          -0.1810303	          -0.3293762	           0.1612854
 8242000000	          -0.3905334	           0.1486969	          -0.5975037	          -0.1710815	          -0.5976868	          -0.1716003	          -0.3228302	           0.1524658
 8263000000	          -0.3860474	           0.1414948	          -0.6021729	          -0.1625366	           -0.602356	          -0.1630554	          -0.3181305	           0.1447296
 8284000000	           -0.381485	           0.1328735	          -0.6067505	          -0.1525879	          -0.6069336	          -0.1530762	           -0.313446	           0.1348572
 8305000000	          -0.3773346	           0.1249695	          -0.6107483	          -0.1434937	          -0.6112366	          -0.1441345	          -0.3083954	           0.1261139
 8326000000	          -0.3730316	            0.116745	          -0.6150818	          -0.1334534	          -0.6150513	          -0.1339111	          -0.3040924	           0.1177979
 8347000000	          -0.3699341	           0.1091919	          -0.6182556	          -0.1242065	          -0.6183167	          -0.1248169	          -0.3011322	           0.1088867
 8368000000	           -0.366745	           0.1004791	          -0.6216431	          -0.1141052	          -0.6223145	          -0.1143799	          -0.2967377	           0.0992432
 8389000000	           -0.363678	           0.0929871	          -0.6244812	           -0.104248	          -0.6248169	          -0.1049194	          -0.2936554	            0.091568
 8410000000	           -0.361145	           0.0842285	          -0.6273499	          -0.0940552	          -0.6273804	          -0.0946045	          -0.2916107	           0.0819397
 8431000000	          -0.3584137	           0.0761414	          -0.6295776	          -0.0845337	          -0.6299744	          -0.0848999	          -0.2888641	           0.0724792
 8452000000	           -0.355896	           0.0680542	          -0.6318359	           -0.073761	          -0.6321411	          -0.0742798	          -0.2865601	           0.0638428
 8473000000	          -0.3539734	           0.0604553	          -0.6336365	          -0.0645142	          -0.6337585	          -0.0649719	          -0.2857819	           0.0550995
 8494000000	          -0.3524017	           0.0516815	          -0.6351013	          -0.0540466	          -0.6354675	          -0.0544128	          -0.2838593	           0.0446777
 8515000000	          -0.3506012	           0.0437927	          -0.6360168	           -0.044281	          -0.6365051	          -0.0448303	          -0.2822571	           0.0363159
 8536000000	          -0.3493652	           0.0358124	           -0.637146	          -0.0339355	          -0.6376648	          -0.0345154	          -0.2824402	           0.0271759
 8557000000	          -0.3484344	           0.0279236	          -0.6377869	          -0.0249023	           -0.638031	          -0.0252075	          -0.2824707	           0.0175629
 8578000000	          -0.3475647	           0.0193329	          -0.6383362	          -0.0143433	          -0.6383362	          -0.0148621	          -0.2813416	           0.0078735
 8599000000	          -0.3468933	           0.0114746	          -0.6382446	          -0.0050354	          -0.6387329	          -0.0057678	          -0.2818298	          -0.0005188
 8620000000	          -0.3469391	           0.0028534	          -0.6383057	           0.0048218	          -0.6385498	            0.004364	           -0.282959	          -0.0109406
 8641000000	          -0.3466339	          -0.0049744	          -0.6379089	           0.0137939	          -0.6384888	           0.0134888	          -0.2829742	          -0.0198975
 8662000000	          -0.3473053	          -0.0129852	           -0.637085	           0.0238037	          -0.6376038	           0.0234985	          -0.2837067	          -0.0285492
 8683000000	          -0.3482666	          -0.0209656	           -0.636261	           0.0326233	          -0.6366882	           0.0322266	          -0.2851715	          -0.0378418
 8704000000	          -0.3491669	          -0.0297852	           -0.635376	           0.0426025	          -0.6358032	           0.0422058	          -0.2855988	           -0.047699
 8725000000	          -0.3500366	          -0.0370483	          -0.6341248	           0.0513306	          -0.6347656	           0.0509949	          -0.2867584	          -0.0553741
 8746000000	          -0.3516998	          -0.0448914	          -0.6324768	            0.060791	           -0.632782	           0.0605774	          -0.2891235	          -0.0644226
 8767000000	          -0.3535156	          -0.0520325	          -0.6307068	           0.0695801	          -0.6314392	           0.0692444	          -0.2902069	          -0.0733643
 8788000000	          -0.3557587	          -0.0596161	          -0.6286011	           0.0792236	          -0.6290283	           0.0785828	          -0.2911072	          -0.0814362
 8809000000	          -0.3579254	          -0.0663757	          -0.6264038	           0.0877991	          -0.6268311	           0.0873718	          -0.2935028	          -0.0884705
 8830000000	          -0.3599548	          -0.0737152	          -0.6238403	           0.0971985	          -0.6241455	           0.0969238	          -0.2958984	          -0.0970764
 8851000000	          -0.3616791	           -0.079895	          -0.6210327	           0.1054077	          -0.6217957	           0.1052551	          -0.2973938	          -0.1037292
 8872000000	           -0.364502	          -0.0860443	           -0.617981	           0.1146851	          -0.6184082	           0.1144104	          -0.3000336	          -0.1103973
 8893000000	          -0.3670807	          -0.0921326	           -0.614563	           0.1227112	          -0.6152954	           0.1226196	          -0.3029327	          -0.1172333
 8914000000	          -0.3698273	          -0.0986481	          -0.6110535	           0.1316528	          -0.6114502	           0.1311035	          -0.3049316	          -0.1240387
 8935000000	          -0.3720856	          -0.1043549	          -0.6074829	           0.1392822	          -0.6080322	           0.1391907	          -0.3079529	          -0.1290436
 8956000000	          -0.3748322	          -0.1108398	          -0.6029968	           0.1473694	          -0.6037598	           0.1473694	          -0.3120117	           -0.135376
 8977000000	          -0.3772278	          -0.1168671	          -0.5993958	           0.1546631	          -0.5998535	           0.1545105	          -0.3144836	          -0.1410522
 8998000000	          -0.3799438	          -0.1224365	          -0.5950928	            0.162323	          -0.5953369	           0.1621094	          -0.3176575	          -0.1457825
 9019000000	           -0.383194	          -0.1281738	          -0.5907288	           0.1687012	          -0.5913696	           0.1687927	          -0.3217621	          -0.1504822
 9040000000	          -0.3864899	          -0.1346283	          -0.5862732	           0.1758118	          -0.5867615	           0.1755066	           -0.325531	           -0.156601
 9061000000	          -0.3894196	          -0.1403961	          -0.5820007	           0.1820374	          -0.5826111	           0.1817932	          -0.3288116	          -0.1607056
 9082000000	          -0.3929443	          -0.1460419	          -0.5774841	           0.1878967	          -0.5780029	           0.1878357	          -0.3339386	          -0.1652527
 9103000000	          -0.3968964	          -0.1513062	          -0.5736389	           0.1934814	          -0.5743103	            0.193512	          -0.3384247	          -0.1708679
 9124000000	          -0.4013824	          -0.1565094	          -0.5691833	           0.1993408	          -0.5695496	           0.1993103	          -0.3421326	          -0.1758423
 9145000000	          -0.4058228	          -0.1611938	          -0.5652161	           0.2044983	          -0.5657043	           0.2043457	          -0.3469238	           -0.180069
 9166000000	           -0.410614	          -0.1663208	          -0.5610046	           0.2102966	          -0.5615845	           0.2103882	          -0.3528442	          -0.1861877
 9187000000	          -0.4147339	          -0.1705322	           -0.557312	           0.2151489	          -0.5579834	           0.2151489	          -0.3569641	          -0.1912842
 9208000000	           -0.419342	          -0.1741943	          -0.5534058	           0.2213745	          -0.5536194	            0.221344	          -0.3629608	           -0.195694
 9229000000	           -0.424118	          -0.1773987	           -0.549469	           0.2260132	          -0.5500183	           0.2261353	           -0.369278	          -0.2007141
 9250000000	          -0.4289856	          -0.1809082	          -0.5450439	           0.2324219	          -0.5454407	           0.2323303	          -0.3744354	          -0.2068939
 9271000000	          -0.4331665	          -0.1839294	          -0.5412292	            0.237793	          -0.5415344	           0.2377625	          -0.3797302	          -0.2108307
 9292000000	          -0.4372101	          -0.1871796	          -0.5361938	           0.2436523	          -0.5367126	           0.2437744	          -0.3871307	          -0.2153473
 9313000000	          -0.4412079	          -0.1902771	          -0.5316467	           0.2487793	          -0.5322571	           0.2489319	          -0.3925781	           -0.220459
 9334000000	          -0.4451599	          -0.1933594	           -0.526825	           0.2549133	          -0.5270386	           0.2546692	          -0.3982697	          -0.2245483
 9355000000	          -0.4486389	          -0.1960602	          -0.5216675	           0.2594299	          -0.5222168	           0.2595215	          -0.4047852	          -0.2279816
 9376000000	          -0.4533386	          -0.1996613	          -0.5163574	           0.2643738	          -0.5167236	            0.264679	          -0.4109192	          -0.2332458
 9397000000	           -0.457077	          -0.2032318	          -0.5114136	           0.2687073	          -0.5119324	           0.2688904	          -0.4154663	          -0.2372894
 9418000000	          -0.4613495	          -0.2062683	          -0.5057373	           0.2732544	           -0.506134	           0.2732544	          -0.4212646	          -0.2404633
 9439000000	          -0.4663239	          -0.2093658	           -0.500946	           0.2767334	          -0.5013428	           0.2772217	          -0.4266052	           -0.245285
 9460000000	          -0.4707336	          -0.2122803	          -0.4958191	           0.2803497	           -0.496109	           0.2802429	          -0.4307098	          -0.2499695
 9481000000	          -0.4752045	          -0.2148743	          -0.4913788	           0.2839508	          -0.4918213	           0.2841339	          -0.4345551	          -0.2527466
 9502000000	          -0.4808502	          -0.2178192	          -0.4868317	            0.287323	          -0.4870911	           0.2875214	          -0.4400635	          -0.2574158
 9523000000	          -0.4856415	          -0.2200165	          -0.4827576	           0.2903137	          -0.4832611	           0.2904358	           -0.443512	          -0.2621918
 9544000000	          -0.4905701	          -0.2222748	          -0.4784698	           0.2937469	          -0.4786072	           0.2937775	          -0.4473267	          -0.2649536
 9565000000	          -0.4951477	          -0.2236481	          -0.4743347	            0.296814	          -0.4748688	           0.2970886	          -0.4524536	          -0.2679291
 9586000000	          -0.5007629	          -0.2254639	          -0.4702454	           0.3005981	          -0.4707642	           0.3009186	          -0.4568024	          -0.2725372
 9607000000	          -0.5053406	          -0.2267761	          -0.4666748	           0.3039398	          -0.4668121	           0.3041992	          -0.4598694	          -0.2749939
 9628000000	          -0.5100098	          -0.2281494	          -0.4623566	            0.307312	          -0.4626465	           0.3074036	          -0.4648285	          -0.2768707
 9649000000	          -0.5144348	          -0.2290039	          -0.4583435	           0.3107605	          -0.4586945	           0.3111725	          -0.4698181	          -0.2797394
 9670000000	          -0.5188293	          -0.2300415	           -0.453949	           0.3148346	          -0.4540253	           0.3148346	          -0.4734955	          -0.2814331
 9691000000	          -0.5223389	          -0.2305603	          -0.4497833	              0.3181	          -0.4498138	           0.3182831	          -0.4779816	          -0.2811279
 9712000000	          -0.5267944	          -0.2311401	          -0.4448853	           0.3217163	          -0.4450531	           0.3219299	          -0.4836121	          -0.2825775
 9733000000	          -0.5307312	          -0.2317505	          -0.4399414	           0.3249359	          -0.4401703	           0.3251343	          -0.4873352	          -0.2829132
 9754000000	          -0.5348816	          -0.2325745	          -0.4347687	           0.3284149	          -0.4349823	           0.3285828	          -0.4921417	          -0.2814484
 9775000000	          -0.5385132	          -0.2333374	          -0.4298401	           0.3313141	          -0.4299622	           0.3315887	          -0.4976807	          -0.2804413
 9796000000	          -0.5422668	          -0.2342529	          -0.4244995	           0.3342285	          -0.4246826	           0.3343048	          -0.5021667	          -0.2802429
 9817000000	          -0.5456238	          -0.2348633	          -0.4198761	            0.336792	          -0.4199524	           0.3371124	           -0.506134	          -0.2781982
 9838000000	          -0.5498047	          -0.2353821	          -0.4141235	            0.339035	           -0.414093	           0.3390045	          -0.5119019	          -0.2761536
 9859000000	          -0.5537109	          -0.2358093	          -0.4093475	           0.3415375	          -0.4095917	           0.3415375	          -0.5164185	          -0.2758789
 9880000000	          -0.5576782	          -0.2367249	          -0.4044189	           0.3435516	          -0.4044647	           0.3434601	          -0.5203247	          -0.2743225
 9901000000	          -0.5610657	          -0.2372131	          -0.3998718	           0.3451691	          -0.3999176	           0.3453064	          -0.5255737	          -0.2721863
 9922000000	          -0.5654297	          -0.2374268	          -0.3946381	           0.3468018	          -0.3948669	           0.3468933	          -0.5311584	          -0.2720337
 9943000000	          -0.5692444	          -0.2373657	          -0.3901062	            0.348465	          -0.3902435	           0.3486328	           -0.534729	          -0.2712097
 9964000000	          -0.5731506	          -0.2377625	          -0.3858032	           0.3500061	          -0.3857422	           0.3498688	          -0.5397339	          -0.2695618
 9985000000	          -0.5774231	          -0.2376404	          -0.3817749	           0.3512726	          -0.3817749	           0.3516693	          -0.5453186	          -0.2698669
1.0006e+010	          -0.5812378	            -0.23703	           -0.377243	           0.3526001	          -0.3772125	            0.352478	          -0.5491638	          -0.2705078
1.0027e+010	          -0.5849304	          -0.2365112	          -0.3731689	           0.3537903	          -0.3731537	           0.3540039	          -0.5532227	           -0.269928
1.0048e+010	           -0.588562	          -0.2360535	          -0.3689575	           0.3551178	          -0.3688202	           0.3551178	           -0.559082	           -0.269989
1.0069e+010	          -0.5919495	          -0.2353821	          -0.3653564	           0.3563843	           -0.365509	           0.3566437	          -0.5632935	          -0.2715149
 1.009e+010	          -0.5959473	          -0.2344055	           -0.361496	           0.3578339	          -0.3614655	            0.357605	          -0.5669556	           -0.271698
1.0111e+010	           -0.598999	          -0.2338257	          -0.3576508	           0.3589935	           -0.357605	           0.3590088	          -0.5722046	          -0.2710876
1.0132e+010	          -0.6030884	          -0.2330627	          -0.3532257	           0.3605957	          -0.3534393	           0.3605957	          -0.5774231	           -0.272522
1.0153e+010	          -0.6058044	          -0.2323914	          -0.3499451	           0.3617554	          -0.3500519	           0.3617554	           -0.580719	          -0.2733459
1.0174e+010	          -0.6090393	          -0.2316589	          -0.3462372	           0.3630829	           -0.346344	           0.3629913	          -0.5851135	          -0.2728882
1.0195e+010	          -0.6121216	          -0.2308655	          -0.3425751	           0.3643951	          -0.3426361	           0.3644409	          -0.5902405	          -0.2736206
1.0216e+010	          -0.6154785	          -0.2297058	           -0.338501	           0.3657684	          -0.3386993	           0.3656158	          -0.5936279	           -0.274231
1.0237e+010	           -0.618042	          -0.2288818	          -0.3351288	           0.3669586	          -0.3352051	           0.3669281	          -0.5970154	          -0.2733459
1.0258e+010	          -0.6211548	           -0.228302	          -0.3309326	           0.3682861	          -0.3310394	           0.3681946	          -0.6023254	          -0.2732544
1.0279e+010	          -0.6235046	          -0.2278137	          -0.3273315	           0.3694916	          -0.3275604	           0.3693695	          -0.6054077	          -0.2733459
  1.03e+010	          -0.6263428	          -0.2268066	            -0.32341	           0.3708801	          -0.3235474	           0.3704681	          -0.6081848	          -0.2718811
1.0321e+010	          -0.6290894	          -0.2260132	          -0.3198547	           0.3717957	          -0.3197327	           0.3716431	          -0.6123657	          -0.2703247
1.0342e+010	          -0.6316833	          -0.2261047	           -0.315918	            0.372757	          -0.3161621	           0.3725433	          -0.6159058	          -0.2705688
1.0363e+010	          -0.6339111	          -0.2254333	           -0.312561	           0.3735199	           -0.312561	           0.3735199	          -0.6173706	          -0.2695923
1.0384e+010	          -0.6369019	          -0.2246094	          -0.3087311	           0.3744965	          -0.3090668	           0.3745575	          -0.6209717	          -0.2670593
1.0405e+010	          -0.6394348	          -0.2245483	          -0.3049774	           0.3752899	           -0.305069	           0.3752899	          -0.6246643	          -0.2659302
1.0426e+010	          -0.6420898	          -0.2241211	          -0.3012085	           0.3761444	          -0.3017883	           0.3760529	          -0.6262512	          -0.2646179
1.0447e+010	          -0.6443787	          -0.2237244	          -0.2980347	           0.3767242	          -0.2981567	           0.3769379	          -0.6286621	          -0.2615051
1.0468e+010	          -0.6471558	          -0.2234192	          -0.2940826	           0.3775177	          -0.2944946	           0.3775787	          -0.6327515	          -0.2598267
1.0489e+010	          -0.6495667	          -0.2225647	          -0.2909698	           0.3779755	           -0.291153	           0.3781891	           -0.634552	          -0.2587891
