! 
! FILENAME MUT_5mm_NTG
# Hz S RI R 50
 8200000000	           -0.405426	           0.1621094	          -0.5887451	          -0.1925354	          -0.5892029	          -0.1930542	          -0.3384094	           0.1679382
 8221000000	          -0.4009094	           0.1550751	          -0.5939941	          -0.1837463	          -0.5941772	          -0.1846008	          -0.3330536	           0.1577606
 8242000000	          -0.3953094	           0.1469727	          -0.5993042	          -0.1743469	           -0.599762	          -0.1749878	            -0.32547	           0.1494904
 8263000000	          -0.3912354	             0.13974	          -0.6040955	          -0.1655273	          -0.6044006	          -0.1663208	            -0.32164	           0.1425018
 8284000000	          -0.3865051	           0.1310272	            -0.60849	          -0.1554565	          -0.6091614	            -0.15625	           -0.317215	           0.1312408
 8305000000	          -0.3816376	           0.1233368	          -0.6126099	          -0.1463318	          -0.6134338	          -0.1473083	          -0.3106537	           0.1223755
 8326000000	          -0.3776703	           0.1157074	          -0.6169434	          -0.1360779	          -0.6173096	          -0.1367493	          -0.3067322	           0.1154633
 8347000000	          -0.3746338	           0.1081543	          -0.6197205	          -0.1268005	          -0.6205444	          -0.1275024	          -0.3044281	            0.105423
 8368000000	          -0.3704376	           0.0991669	          -0.6233826	          -0.1166992	           -0.624176	           -0.117157	          -0.2983551	           0.0953674
 8389000000	          -0.3672333	           0.0921936	          -0.6262817	            -0.10672	          -0.6269226	          -0.1075439	          -0.2949677	           0.0890656
 8410000000	          -0.3650818	           0.0836639	          -0.6287231	          -0.0964661	          -0.6293945	          -0.0969849	          -0.2938538	           0.0792542
 8431000000	          -0.3616028	           0.0749817	           -0.631073	          -0.0869446	          -0.6318665	          -0.0877991	          -0.2901001	           0.0690002
 8452000000	          -0.3587341	           0.0671692	          -0.6335754	          -0.0761414	          -0.6340332	          -0.0767212	          -0.2867126	            0.062027
 8473000000	          -0.3568726	            0.059906	          -0.6347656	          -0.0668945	          -0.6355591	          -0.0675659	          -0.2870178	           0.0534668
 8494000000	          -0.3553467	           0.0505981	          -0.6363831	           -0.056366	          -0.6373291	          -0.0571289	          -0.2846375	           0.0419464
 8515000000	          -0.3533478	           0.0427094	          -0.6374207	          -0.0466309	          -0.6383972	          -0.0474548	          -0.2819366	           0.0346985
 8536000000	          -0.3522797	           0.0344238	          -0.6383667	          -0.0364685	          -0.6391602	          -0.0370789	          -0.2828522	           0.0265656
 8557000000	          -0.3514099	            0.026001	          -0.6388245	          -0.0271606	          -0.6400146	          -0.0281067	          -0.2830048	           0.0154114
 8578000000	          -0.3507538	           0.0172729	          -0.6396484	          -0.0169983	          -0.6401672	          -0.0178528	          -0.2805634	           0.0066223
 8599000000	          -0.3503571	           0.0096588	          -0.6396179	          -0.0078735	          -0.6405334	          -0.0086365	          -0.2816925	           -0.000473
 8620000000	          -0.3505859	           0.0006104	           -0.639679	           0.0021362	           -0.640625	           0.0015259	          -0.2837524	          -0.0117035
 8641000000	          -0.3499603	          -0.0071106	          -0.6392212	           0.0111389	           -0.640686	           0.0106812	          -0.2826843	          -0.0208435
 8662000000	          -0.3509674	          -0.0144806	          -0.6387634	           0.0212097	          -0.6394653	           0.0206604	          -0.2836914	           -0.027771
 8683000000	          -0.3522186	          -0.0220184	          -0.6377258	           0.0301514	          -0.6388245	           0.0295715	          -0.2868347	          -0.0374756
 8704000000	          -0.3530273	          -0.0307159	          -0.6368408	           0.0402832	          -0.6378174	           0.0397034	           -0.286377	          -0.0485687
 8725000000	          -0.3537903	          -0.0374146	          -0.6356506	           0.0489197	          -0.6369324	           0.0484009	          -0.2871552	          -0.0550385
 8746000000	          -0.3560181	          -0.0449219	          -0.6339417	           0.0584717	          -0.6348877	           0.0581665	           -0.291153	          -0.0643311
 8767000000	          -0.3573303	          -0.0524445	           -0.632019	           0.0675354	          -0.6334229	           0.0667419	          -0.2919464	          -0.0746765
 8788000000	          -0.3590698	          -0.0599365	           -0.630249	           0.0768433	          -0.6311035	           0.0762939	          -0.2917786	          -0.0824432
 8809000000	          -0.3612976	          -0.0660858	           -0.627655	           0.0856018	          -0.6289063	           0.0851746	          -0.2954254	          -0.0892792
 8830000000	          -0.3628998	          -0.0738525	          -0.6248474	           0.0950623	          -0.6259766	           0.0947571	          -0.2976685	          -0.0997925
 8851000000	          -0.3644104	          -0.0803375	          -0.6220093	           0.1031494	          -0.6235352	           0.1028748	          -0.2978363	          -0.1067657
 8872000000	          -0.3666077	          -0.0868988	          -0.6188965	           0.1122131	          -0.6200562	           0.1117859	          -0.3009796	          -0.1128693
 8893000000	          -0.3685303	          -0.0936279	          -0.6152344	           0.1203308	          -0.6167908	           0.1199341	          -0.3040466	          -0.1214142
 8914000000	          -0.3708344	           -0.100174	          -0.6118774	           0.1287231	           -0.612793	           0.1282043	          -0.3040009	          -0.1289673
 8935000000	          -0.3732452	          -0.1056366	          -0.6081238	              0.1362	          -0.6094971	           0.1361694	          -0.3064575	          -0.1329041
 8956000000	          -0.3766785	          -0.1126251	          -0.6035461	           0.1441956	          -0.6048584	           0.1441956	          -0.3107605	          -0.1405945
 8977000000	           -0.378952	          -0.1198425	          -0.5997314	           0.1510315	          -0.6011963	           0.1508484	          -0.3114166	          -0.1474915
 8998000000	          -0.3817291	          -0.1252441	          -0.5958557	           0.1584167	          -0.5968018	           0.1582336	          -0.3130341	          -0.1511841
 9019000000	          -0.3854523	          -0.1310425	          -0.5915222	           0.1644592	          -0.5932007	           0.1645813	          -0.3180237	          -0.1559753
 9040000000	          -0.3894501	           -0.137619	          -0.5873413	           0.1715698	          -0.5888977	            0.171051	          -0.3205719	          -0.1635742
 9061000000	          -0.3925629	          -0.1431732	          -0.5836487	           0.1772156	          -0.5848694	           0.1772461	           -0.322052	          -0.1669312
 9082000000	          -0.3966675	          -0.1483459	          -0.5794373	            0.183075	          -0.5808411	           0.1829224	          -0.3280334	          -0.1712952
 9103000000	           -0.401123	          -0.1534271	          -0.5759888	           0.1884766	          -0.5778198	           0.1886292	          -0.3321991	          -0.1780396
 9124000000	          -0.4058075	          -0.1583862	          -0.5722961	           0.1944275	          -0.5735779	           0.1945496	          -0.3344421	           -0.182663
 9145000000	          -0.4099426	          -0.1623688	           -0.568634	           0.1997681	          -0.5701294	           0.2000732	          -0.3397675	          -0.1852417
 9166000000	          -0.4147644	          -0.1669464	          -0.5648804	           0.2057495	          -0.5663147	           0.2061157	          -0.3470306	          -0.1924591
 9187000000	          -0.4180756	          -0.1708984	           -0.561554	            0.210968	          -0.5632324	           0.2113953	          -0.3499298	          -0.1974792
 9208000000	          -0.4221649	          -0.1736908	          -0.5578613	           0.2177429	          -0.5589294	           0.2180176	          -0.3564148	          -0.1998444
 9229000000	          -0.4266968	          -0.1767426	          -0.5539246	           0.2226868	          -0.5557251	           0.2234497	          -0.3647156	          -0.2050781
 9250000000	          -0.4304962	          -0.1809692	          -0.5496521	           0.2295532	          -0.5509949	           0.2298584	          -0.3695068	          -0.2121887
 9271000000	          -0.4337616	          -0.1838837	          -0.5457764	           0.2351074	          -0.5469666	           0.2359924	          -0.3744812	          -0.2142792
 9292000000	          -0.4376373	          -0.1866608	          -0.5401917	           0.2417297	          -0.5415955	           0.2424316	          -0.3841248	          -0.2181091
 9313000000	          -0.4419403	          -0.1910095	          -0.5353394	           0.2469788	          -0.5368652	           0.2478027	          -0.3896027	          -0.2243652
 9334000000	          -0.4454498	            -0.19487	           -0.530304	           0.2529907	          -0.5314636	           0.2532959	          -0.3943634	          -0.2276001
 9355000000	          -0.4486389	          -0.1982727	          -0.5248108	           0.2573853	          -0.5263062	           0.2581787	          -0.4026642	            -0.22995
 9376000000	          -0.4537659	           -0.202301	          -0.5194092	           0.2623596	           -0.520752	           0.2631531	          -0.4097748	          -0.2366333
 9397000000	          -0.4578857	          -0.2063599	          -0.5145569	           0.2663269	          -0.5157776	           0.2672729	          -0.4130402	          -0.2405396
 9418000000	          -0.4625397	          -0.2090149	          -0.5088806	            0.270813	          -0.5101318	           0.2716675	          -0.4199219	          -0.2426605
 9439000000	          -0.4676971	          -0.2122498	          -0.5037842	           0.2738647	          -0.5052185	           0.2752686	          -0.4268494	          -0.2489929
 9460000000	          -0.4730377	           -0.216095	          -0.4994202	           0.2772675	          -0.5004883	           0.2781372	           -0.429657	          -0.2544556
 9481000000	           -0.477066	          -0.2184753	          -0.4951477	            0.280838	           -0.496521	           0.2822266	           -0.434082	          -0.2559814
 9502000000	          -0.4828491	          -0.2207336	          -0.4908447	           0.2843781	          -0.4920349	           0.2855682	          -0.4419403	          -0.2610931
 9523000000	          -0.4880371	          -0.2229767	          -0.4873505	           0.2874603	          -0.4884186	           0.2889252	          -0.4447327	           -0.267334
 9544000000	          -0.4924774	           -0.224411	          -0.4829865	           0.2910461	          -0.4838104	           0.2923126	           -0.447998	          -0.2691498
 9565000000	          -0.4973297	          -0.2253418	          -0.4792633	            0.294281	          -0.4802399	           0.2962341	          -0.4554749	          -0.2717133
 9586000000	           -0.503418	          -0.2272339	          -0.4753265	           0.2986908	          -0.4761505	           0.3000183	          -0.4604492	          -0.2783051
 9607000000	          -0.5073547	          -0.2292175	          -0.4718628	           0.3019562	          -0.4722137	           0.3037567	          -0.4622803	          -0.2805481
 9628000000	          -0.5106812	          -0.2301941	          -0.4674377	           0.3058014	          -0.4679108	           0.3073578	          -0.4692993	          -0.2808838
 9649000000	          -0.5157471	          -0.2309875	          -0.4635162	           0.3096008	          -0.4640961	           0.3115997	          -0.4752655	          -0.2849426
 9670000000	          -0.5200806	           -0.232666	          -0.4589233	           0.3140564	          -0.4588928	           0.3154755	          -0.4776459	          -0.2870026
 9691000000	          -0.5229492	          -0.2338562	          -0.4545288	            0.317337	          -0.4544525	           0.3191071	          -0.4825134	          -0.2855988
 9712000000	          -0.5270691	           -0.234314	          -0.4493103	           0.3214111	          -0.4495697	           0.3230438	           -0.489502	          -0.2878418
 9733000000	          -0.5312195	          -0.2353516	          -0.4443207	           0.3245087	          -0.4441986	           0.3262177	          -0.4919281	          -0.2890167
 9754000000	          -0.5352783	          -0.2364502	          -0.4388123	           0.3280182	          -0.4389343	           0.3295135	          -0.4958801	           -0.286087
 9775000000	          -0.5389404	          -0.2377014	            -0.43367	           0.3309479	          -0.4335938	           0.3326721	          -0.5027161	          -0.2853088
 9796000000	          -0.5429993	          -0.2394104	          -0.4282837	           0.3335266	           -0.428009	           0.3349762	          -0.5060425	          -0.2870789
 9817000000	          -0.5466614	          -0.2403564	          -0.4237671	           0.3358917	          -0.4231262	           0.3376465	          -0.5083923	          -0.2842102
 9838000000	          -0.5507202	          -0.2406311	          -0.4178314	           0.3382416	          -0.4171753	           0.3394775	          -0.5149231	          -0.2814941
 9859000000	           -0.555603	          -0.2414856	          -0.4132538	           0.3405762	          -0.4125824	           0.3417206	          -0.5189514	          -0.2830811
 9880000000	          -0.5597229	           -0.243103	          -0.4083405	           0.3424225	          -0.4074249	           0.3434601	          -0.5204163	          -0.2814636
 9901000000	          -0.5630188	          -0.2436523	          -0.4039764	           0.3441467	          -0.4029694	           0.3452911	          -0.5262756	           -0.277771
 9922000000	          -0.5678101	          -0.2436218	          -0.3986969	            0.345993	          -0.3983002	           0.3467712	           -0.532074	          -0.2788391
 9943000000	          -0.5727539	          -0.2436523	          -0.3946533	           0.3472443	          -0.3935547	           0.3483582	          -0.5338135	          -0.2787781
 9964000000	          -0.5762939	          -0.2449036	          -0.3900909	           0.3489685	          -0.3892212	            0.349411	           -0.538147	          -0.2752991
 9985000000	          -0.5795898	          -0.2448425	          -0.3865967	           0.3501892	          -0.3856506	           0.3513184	          -0.5450134	          -0.2755432
1.0006e+010	          -0.5841064	          -0.2433777	          -0.3821411	            0.352005	          -0.3812408	           0.3524475	          -0.5475159	          -0.2773132
1.0027e+010	          -0.5889893	          -0.2420959	           -0.378067	           0.3532715	           -0.377121	           0.3540497	          -0.5505981	          -0.2749023
1.0048e+010	          -0.5936279	          -0.2418518	          -0.3737793	            0.355072	           -0.372879	           0.3553009	          -0.5581055	          -0.2741699
1.0069e+010	          -0.5968933	          -0.2415771	          -0.3702545	           0.3562927	          -0.3695526	           0.3567963	          -0.5623779	           -0.276947
 1.009e+010	          -0.6004944	          -0.2408142	          -0.3665924	           0.3577423	          -0.3656769	           0.3579102	          -0.5646057	          -0.2762146
1.0111e+010	          -0.6038208	          -0.2402039	          -0.3628998	           0.3592987	          -0.3618622	           0.3596802	          -0.5712585	           -0.273468
1.0132e+010	          -0.6080627	          -0.2391052	          -0.3584747	           0.3613129	          -0.3576508	           0.3613281	          -0.5777283	          -0.2760925
1.0153e+010	          -0.6113281	          -0.2384338	          -0.3549805	           0.3623657	          -0.3541412	           0.3625336	          -0.5798035	          -0.2770081
1.0174e+010	          -0.6148682	          -0.2378235	          -0.3511963	           0.3639832	          -0.3505096	           0.3640747	          -0.5848389	          -0.2745056
1.0195e+010	          -0.6178894	          -0.2372742	          -0.3473358	           0.3656464	          -0.3467407	           0.3658295	          -0.5921326	          -0.2753601
1.0216e+010	            -0.62146	          -0.2357178	          -0.3432007	           0.3672943	          -0.3424835	           0.3670502	          -0.5948486	          -0.2771606
1.0237e+010	          -0.6246948	          -0.2349548	          -0.3397827	            0.368576	          -0.3390808	           0.3686676	          -0.5978699	          -0.2746887
1.0258e+010	          -0.6279297	          -0.2348022	           -0.335083	           0.3703156	          -0.3347931	           0.3699493	          -0.6049805	          -0.2740784
1.0279e+010	          -0.6302795	          -0.2339478	          -0.3312988	           0.3716278	          -0.3309174	           0.3712158	          -0.6080017	          -0.2759094
  1.03e+010	          -0.6334839	          -0.2322693	           -0.327179	           0.3730469	          -0.3270874	           0.3724976	          -0.6096497	          -0.2736511
1.0321e+010	          -0.6368103	          -0.2315674	          -0.3232117	           0.3740845	          -0.3227997	           0.3738556	          -0.6149902	          -0.2713928
1.0342e+010	          -0.6394958	           -0.231842	          -0.3190918	           0.3748627	          -0.3191986	           0.3743286	           -0.618988	          -0.2736816
1.0363e+010	          -0.6419067	          -0.2307739	          -0.3157654	           0.3755035	          -0.3153381	           0.3755035	          -0.6185608	          -0.2725525
1.0384e+010	          -0.6452026	          -0.2295227	           -0.311615	           0.3768158	          -0.3117065	           0.3763123	          -0.6228027	          -0.2687988
1.0405e+010	          -0.6479492	           -0.229248	          -0.3078613	           0.3773041	          -0.3076324	            0.377182	          -0.6270447	          -0.2693787
1.0426e+010	          -0.6509705	          -0.2279968	          -0.3040466	           0.3781738	          -0.3039856	           0.3777313	          -0.6263733	           -0.269928
1.0447e+010	          -0.6537781	          -0.2269287	          -0.3006134	           0.3788147	           -0.300415	           0.3788757	          -0.6278992	          -0.2648926
1.0468e+010	          -0.6568604	          -0.2265015	          -0.2965698	           0.3795929	          -0.2967224	           0.3792419	          -0.6335449	           -0.263855
1.0489e+010	          -0.6592712	          -0.2253113	          -0.2934418	            0.379776	          -0.2932739	           0.3795624	          -0.6339722	          -0.2649536
