! 
! FILENAME FOAM_25mm
# Hz S RI R 50
2600000000	          -0.5096741	           0.1044006	            0.006012	          -0.6396179	           -0.001709	          -0.6472168	          -0.5245667	           0.0959473
2606500000	          -0.5072937	           0.1088867	           0.0022888	          -0.6410828	          -0.0066528	          -0.6485901	          -0.5216675	           0.1004639
2613000000	          -0.5055237	           0.1113892	          -0.0018311	          -0.6437378	          -0.0110168	          -0.6495972	          -0.5188904	           0.1026306
2619500000	          -0.5025024	           0.1157837	          -0.0056763	          -0.6447144	          -0.0145874	          -0.6498718	           -0.515564	           0.1070251
2626000000	           -0.499649	           0.1178284	          -0.0096436	          -0.6459961	          -0.0173645	          -0.6513062	           -0.512146	           0.1086121
2632500000	          -0.4952087	           0.1210175	          -0.0132751	          -0.6471863	          -0.0202637	          -0.6533813	          -0.5080872	            0.111969
2639000000	          -0.4911652	           0.1208954	          -0.0173035	          -0.6493225	          -0.0247803	          -0.6560974	          -0.5042725	           0.1124268
2645500000	          -0.4872131	           0.1226349	           -0.021759	          -0.6507263	          -0.0303955	          -0.6575928	          -0.4999695	           0.1143799
2652000000	          -0.4842529	            0.121109	          -0.0270691	          -0.6521301	           -0.036377	          -0.6584473	          -0.4965057	            0.113205
2658500000	          -0.4817963	           0.1227875	          -0.0323486	          -0.6520081	          -0.0413513	          -0.6569519	          -0.4936829	            0.114563
2665000000	          -0.4803772	           0.1225739	           -0.037323	          -0.6515503	          -0.0448608	           -0.655365	          -0.4920654	           0.1132355
2671500000	          -0.4786835	           0.1243591	          -0.0407104	          -0.6505432	          -0.0476379	          -0.6551819	          -0.4904633	            0.114624
2678000000	          -0.4780426	           0.1242371	          -0.0440369	          -0.6504517	          -0.0508728	          -0.6555481	          -0.4903107	           0.1145477
2684500000	          -0.4772339	           0.1271362	           -0.046814	           -0.651062	          -0.0542908	          -0.6560974	          -0.4892883	           0.1176453
2691000000	          -0.4767914	           0.1286621	           -0.050354	          -0.6521301	          -0.0589294	           -0.656311	          -0.4887543	           0.1193237
2697500000	          -0.4749908	           0.1324158	          -0.0542297	          -0.6522217	          -0.0617065	          -0.6554565	          -0.4868317	           0.1233368
2704000000	          -0.4727631	           0.1351776	          -0.0582275	          -0.6523743	          -0.0640564	          -0.6548462	          -0.4845123	           0.1256409
2710500000	          -0.4690552	           0.1392822	          -0.0605164	          -0.6522217	          -0.0653381	          -0.6556396	          -0.4809723	           0.1294098
2717000000	          -0.4651794	           0.1407318	          -0.0632935	          -0.6531677	           -0.067688	          -0.6577148	          -0.4773407	           0.1311035
2723500000	          -0.4612122	           0.1437836	          -0.0658264	          -0.6545715	          -0.0707397	          -0.6599426	           -0.473175	           0.1341553
2730000000	          -0.4576874	           0.1444855	          -0.0697021	          -0.6562805	          -0.0752869	           -0.661438	           -0.469223	           0.1347351
2736500000	          -0.4539185	           0.1464233	          -0.0740051	          -0.6573792	          -0.0796509	          -0.6620789	          -0.4648285	           0.1367188
2743000000	          -0.4507446	            0.145813	          -0.0791016	          -0.6579285	           -0.084137	          -0.6616516	          -0.4611511	           0.1355591
2749500000	          -0.4475708	           0.1467896	          -0.0828857	          -0.6579895	          -0.0870056	          -0.6620483	          -0.4579773	           0.1361542
2756000000	          -0.4451294	           0.1449432	          -0.0871277	          -0.6577148	           -0.090271	          -0.6626282	          -0.4560089	             0.13414
2762500000	          -0.4431763	           0.1454163	          -0.0900574	          -0.6581421	          -0.0937805	          -0.6639404	          -0.4543915	           0.1350861
2769000000	           -0.441803	            0.144043	          -0.0940552	          -0.6585388	          -0.0982361	          -0.6647034	          -0.4536743	           0.1342163
2775500000	          -0.4404755	           0.1460419	           -0.098053	          -0.6592407	          -0.1023254	          -0.6651001	          -0.4523468	           0.1360321
2782000000	          -0.4394836	           0.1462402	           -0.102417	          -0.6585083	          -0.1064148	          -0.6644287	          -0.4515686	              0.1362
2788500000	          -0.4378052	           0.1491241	          -0.1054077	          -0.6578369	          -0.1087952	          -0.6643372	          -0.4503021	           0.1392059
2795000000	          -0.4368896	           0.1510773	          -0.1080933	          -0.6571655	          -0.1118164	          -0.6644287	          -0.4492035	           0.1407471
2801500000	          -0.4347534	           0.1549377	          -0.1102905	          -0.6581421	          -0.1150513	          -0.6653137	          -0.4472656	           0.1443634
2808000000	          -0.4325409	           0.1567078	          -0.1135254	           -0.658905	          -0.1188354	          -0.6655273	          -0.4447784	           0.1465302
2814500000	          -0.4295654	           0.1601868	          -0.1171265	          -0.6601257	          -0.1219177	          -0.6660767	          -0.4414825	           0.1503601
2821000000	          -0.4263763	           0.1613922	          -0.1211243	          -0.6604309	          -0.1246643	          -0.6661987	          -0.4376678	           0.1514893
2827500000	          -0.4223022	           0.1637878	          -0.1247864	          -0.6607666	          -0.1273193	          -0.6673584	          -0.4335022	           0.1538391
2834000000	          -0.4179993	           0.1641998	           -0.128418	          -0.6607971	          -0.1305542	          -0.6685181	          -0.4295807	           0.1534882
2840500000	          -0.4131317	           0.1654816	          -0.1314392	          -0.6611023	          -0.1346741	          -0.6703491	          -0.4257202	           0.1546783
2847000000	          -0.4085083	           0.1642456	          -0.1348572	           -0.661377	          -0.1393127	          -0.6713562	          -0.4222565	           0.1534576
2853500000	          -0.4045258	           0.1645355	          -0.1382141	          -0.6625061	          -0.1439819	          -0.6719971	          -0.4191437	           0.1539459
2860000000	          -0.4024048	           0.1624146	          -0.1419067	           -0.663147	           -0.148407	          -0.6716309	          -0.4173431	           0.1518097
2866500000	          -0.4006042	           0.1623688	          -0.1465759	          -0.6641846	          -0.1523743	          -0.6715698	           -0.415863	           0.1519775
2873000000	          -0.4008789	           0.1612396	          -0.1510925	          -0.6645508	          -0.1560974	          -0.6717529	          -0.4156799	           0.1504364
2879500000	          -0.4004517	           0.1621246	          -0.1555786	          -0.6646729	          -0.1602478	          -0.6726074	          -0.4154205	           0.1516266
2886000000	          -0.4015503	           0.1622925	            -0.15979	           -0.664093	          -0.1653748	          -0.6731567	          -0.4155884	           0.1516724
2892500000	          -0.4012299	           0.1646118	          -0.1638794	           -0.664093	          -0.1705933	          -0.6723633	          -0.4151154	           0.1540833
2899000000	          -0.4008636	           0.1660309	          -0.1683655	          -0.6633301	          -0.1752319	          -0.6703186	          -0.4145508	            0.155426
2905500000	           -0.399231	           0.1695404	          -0.1723633	          -0.6627502	           -0.178009	          -0.6688538	          -0.4127197	           0.1587677
2912000000	          -0.3971558	           0.1720581	          -0.1755676	          -0.6620178	          -0.1800842	          -0.6686096	          -0.4104309	           0.1606293
2918500000	           -0.393158	           0.1754761	          -0.1790161	          -0.6619263	          -0.1829224	          -0.6696472	          -0.4067078	           0.1638641
2925000000	          -0.3880005	           0.1771698	          -0.1824951	          -0.6615601	          -0.1872864	          -0.6700134	          -0.4020844	           0.1672211
2931500000	          -0.3831329	           0.1811523	           -0.186554	          -0.6609802	          -0.1923523	          -0.6694641	           -0.397522	           0.1699677
2938000000	          -0.3791656	           0.1817627	          -0.1903076	          -0.6604919	          -0.1968384	          -0.6681213	          -0.3932648	           0.1699066
2944500000	          -0.3757172	           0.1825867	          -0.1938782	          -0.6600342	          -0.2007446	          -0.6669922	          -0.3892975	           0.1703644
2951000000	          -0.3721619	           0.1807861	          -0.1973572	          -0.6596069	          -0.2037964	          -0.6659241	          -0.3854218	           0.1684418
2957500000	          -0.3687439	           0.1802826	          -0.2008667	          -0.6591492	           -0.206665	          -0.6657104	          -0.3821716	           0.1681061
2964000000	          -0.3663788	           0.1779022	          -0.2042847	          -0.6589966	          -0.2098389	          -0.6660156	          -0.3798676	           0.1653442
2970500000	          -0.3641815	           0.1770325	          -0.2079163	          -0.6593323	          -0.2132568	          -0.6664124	          -0.3779144	           0.1650696
2977000000	          -0.3633575	           0.1745453	          -0.2120361	           -0.659729	          -0.2185059	           -0.666748	          -0.3765259	            0.162735
2983500000	          -0.3630371	           0.1753082	          -0.2166748	          -0.6594849	          -0.2232056	          -0.6655884	          -0.3754272	            0.163208
2990000000	           -0.363205	           0.1751862	          -0.2216797	          -0.6585999	          -0.2284241	          -0.6643982	          -0.3755035	           0.1625366
2996500000	           -0.362854	           0.1773376	          -0.2259827	          -0.6571045	          -0.2322388	          -0.6627502	          -0.3748474	           0.1643829
3003000000	           -0.362793	           0.1786346	          -0.2299805	          -0.6556702	          -0.2361755	          -0.6616211	          -0.3744965	           0.1654358
3009500000	          -0.3617401	            0.181015	          -0.2336426	          -0.6550598	          -0.2404785	          -0.6606445	          -0.3731537	           0.1682129
3016000000	           -0.360733	           0.1825562	          -0.2383118	          -0.6539612	          -0.2457581	          -0.6592102	          -0.3716888	           0.1699829
3022500000	          -0.3587036	           0.1854248	          -0.2423706	          -0.6523132	          -0.2496643	          -0.6568604	          -0.3690643	           0.1729126
3029000000	          -0.3558197	           0.1871185	          -0.2464294	          -0.6500549	          -0.2528381	          -0.6545715	          -0.3658752	           0.1742859
3035500000	          -0.3517914	           0.1893463	           -0.249115	          -0.6486206	          -0.2553711	          -0.6531067	          -0.3619537	           0.1762238
3042000000	          -0.3472443	           0.1893921	          -0.2521362	          -0.6477356	           -0.258667	          -0.6526489	          -0.3578339	            0.176239
3048500000	          -0.3429108	           0.1902771	          -0.2550659	          -0.6472778	          -0.2622375	          -0.6521912	          -0.3535919	           0.1772614
3055000000	          -0.3394623	           0.1895905	          -0.2590027	          -0.6468506	          -0.2666321	          -0.6510315	          -0.3494415	           0.1762848
3061500000	          -0.3360291	            0.190033	          -0.2630005	          -0.6459045	          -0.2704773	          -0.6491394	          -0.3457336	           0.1763458
3068000000	          -0.3334351	            0.188797	          -0.2680969	          -0.6446838	          -0.2745667	           -0.646698	          -0.3426666	             0.17453
3074500000	          -0.3309784	           0.1887665	          -0.2720337	          -0.6430359	           -0.277771	          -0.6445618	            -0.33992	           0.1740875
3081000000	           -0.329361	           0.1866302	           -0.276001	          -0.6404114	          -0.2813721	          -0.6427612	          -0.3382111	           0.1719208
3087500000	          -0.3277893	           0.1859741	          -0.2786255	          -0.6386414	          -0.2843933	           -0.641571	          -0.3368683	           0.1715393
3094000000	          -0.3273926	           0.1838837	           -0.282135	          -0.6372986	          -0.2883911	          -0.6399231	          -0.3365021	           0.1698151
3100500000	          -0.3267365	             0.18396	          -0.2857056	          -0.6363525	          -0.2918396	          -0.6379089	          -0.3360596	            0.170166
3107000000	          -0.3265228	           0.1835327	          -0.2904663	          -0.6347351	           -0.295166	          -0.6350708	          -0.3360291	           0.1697083
3113500000	          -0.3253632	           0.1848145	          -0.2941284	          -0.6321716	           -0.296936	          -0.6333008	           -0.335434	           0.1708527
3120000000	          -0.3246002	           0.1852112	           -0.296936	          -0.6286316	          -0.2989807	          -0.6321716	          -0.3351746	           0.1711731
3126500000	          -0.3235168	           0.1873627	          -0.2983398	          -0.6268616	          -0.3015137	          -0.6322937	          -0.3344116	           0.1732025
3133000000	          -0.3223572	           0.1885376	          -0.3006287	          -0.6260376	          -0.3059387	          -0.6313477	          -0.3331909	           0.1745911
3139500000	          -0.3202515	           0.1908875	          -0.3036194	          -0.6260376	          -0.3103027	          -0.6294861	          -0.3306732	           0.1768646
3146000000	          -0.3174896	           0.1917725	          -0.3079224	          -0.6251221	           -0.314209	          -0.6260986	          -0.3274231	           0.1778107
3152500000	          -0.3140717	           0.1936035	          -0.3116455	          -0.6237793	           -0.315979	          -0.6239624	          -0.3233948	           0.1792145
3159000000	          -0.3101349	           0.1932068	          -0.3153992	            -0.62146	          -0.3177185	          -0.6226196	          -0.3196411	           0.1787262
3165500000	          -0.3058929	           0.1940002	          -0.3182678	          -0.6203003	          -0.3199158	          -0.6228027	          -0.3158264	           0.1794128
3172000000	           -0.301651	           0.1931305	          -0.3218994	          -0.6189575	          -0.3240051	          -0.6226196	          -0.3119507	           0.1786652
3178500000	          -0.2976227	           0.1929932	          -0.3254089	          -0.6181335	          -0.3280029	          -0.6221313	          -0.3085327	           0.1787872
3185000000	          -0.2941742	           0.1915741	          -0.3295593	          -0.6165771	          -0.3326111	           -0.619812	          -0.3053894	            0.177002
3191500000	          -0.2913666	             0.19104	          -0.3331604	          -0.6148682	          -0.3356934	          -0.6177368	          -0.3030396	           0.1762085
3198000000	          -0.2891235	           0.1889038	          -0.3373108	           -0.611908	           -0.338623	          -0.6149902	          -0.3013458	           0.1740112
3204500000	          -0.2875977	           0.1882782	          -0.3401489	          -0.6099548	          -0.3408203	          -0.6136169	          -0.3002319	           0.1735077
3211000000	          -0.2866974	           0.1864624	          -0.3429565	          -0.6073914	          -0.3435669	          -0.6122742	          -0.2997437	           0.1719513
3217500000	          -0.2853851	            0.186264	          -0.3452148	          -0.6062012	          -0.3470764	          -0.6115723	          -0.2987823	           0.1723175
3224000000	          -0.2848206	           0.1851654	          -0.3483887	          -0.6048279	          -0.3511047	          -0.6097717	          -0.2980804	           0.1714478
3230500000	          -0.2836761	           0.1854553	          -0.3517761	          -0.6037903	          -0.3540649	          -0.6078186	          -0.2968445	           0.1719666
3237000000	          -0.2826385	           0.1851501	          -0.3554688	          -0.6017456	          -0.3568115	          -0.6052856	          -0.2957916	           0.1717224
3243500000	          -0.2809906	           0.1866913	          -0.3583984	          -0.5998535	          -0.3588562	          -0.6040039	          -0.2941589	           0.1728973
3250000000	          -0.2792969	           0.1876678	          -0.3608398	          -0.5975952	          -0.3616028	          -0.6031799	          -0.2926941	           0.1735229
3256500000	          -0.2766876	            0.189682	          -0.3632813	          -0.5968933	           -0.364624	          -0.6032715	          -0.2905579	           0.1755066
3263000000	          -0.2743988	           0.1906738	          -0.3666992	          -0.5961609	          -0.3694153	          -0.6021729	          -0.2878418	           0.1764374
3269500000	          -0.2716064	           0.1920624	          -0.3703308	            -0.59552	          -0.3731689	          -0.6006775	            -0.28479	           0.1778717
3276000000	           -0.269165	           0.1923065	          -0.3746033	          -0.5942383	          -0.3775635	          -0.5983887	          -0.2818298	           0.1777191
3282500000	          -0.2659912	           0.1929321	          -0.3785706	          -0.5926819	          -0.3806458	          -0.5967712	          -0.2788086	           0.1782227
3289000000	          -0.2628479	           0.1916351	          -0.3825073	          -0.5901184	           -0.384491	          -0.5949402	          -0.2759399	           0.1773071
3295500000	          -0.2594299	           0.1912384	          -0.3859558	          -0.5881042	          -0.3877258	          -0.5935059	          -0.2733459	           0.1770325
3302000000	          -0.2562866	           0.1891937	          -0.3894958	          -0.5857239	          -0.3918762	          -0.5911865	          -0.2706299	            0.175293
3308500000	          -0.2535095	           0.1880646	          -0.3927002	          -0.5837097	          -0.3952332	          -0.5891724	          -0.2682343	           0.1746521
3315000000	          -0.2514038	           0.1860352	          -0.3961792	          -0.5811157	          -0.3988647	          -0.5863953	          -0.2662964	           0.1727905
