! 
! FILENAME PERSPEX
# Hz S RI R 50
2600000000	          -0.6563721	           0.1454773	          -0.1835632	          -0.7094727	           -0.184021	          -0.7142029	          -0.6593323	           0.1438904
2606500000	           -0.653717	           0.1515198	          -0.1878662	          -0.7113953	          -0.1898193	          -0.7164612	          -0.6551819	           0.1495361
2613000000	          -0.6504517	           0.1546936	          -0.1941528	          -0.7151184	          -0.1959229	          -0.7186584	          -0.6520691	            0.153595
2619500000	          -0.6464539	           0.1608582	          -0.1993713	           -0.715332	           -0.201416	           -0.718689	          -0.6472778	           0.1596375
2626000000	          -0.6419983	           0.1633301	          -0.2048645	          -0.7167358	          -0.2053528	          -0.7200928	          -0.6437378	           0.1620789
2632500000	          -0.6359558	           0.1681213	          -0.2094727	          -0.7171936	          -0.2087402	          -0.7210999	          -0.6385803	           0.1669617
2639000000	          -0.6316528	           0.1696472	          -0.2145691	          -0.7196045	          -0.2138672	          -0.7242432	          -0.6347656	           0.1684265
2645500000	          -0.6265259	           0.1726685	          -0.2206116	          -0.7211914	          -0.2202454	          -0.7258606	          -0.6298218	           0.1711121
2652000000	           -0.623291	           0.1721497	          -0.2284546	          -0.7230835	          -0.2293091	          -0.7270813	          -0.6264648	           0.1703796
2658500000	          -0.6200562	            0.175415	          -0.2352295	          -0.7214966	          -0.2368469	          -0.7240601	          -0.6228943	           0.1734314
2665000000	          -0.6178589	           0.1757507	          -0.2426147	          -0.7191772	          -0.2428894	          -0.7219238	          -0.6200256	           0.1730347
2671500000	          -0.6144104	           0.1794434	          -0.2463074	           -0.717041	          -0.2460632	           -0.719696	          -0.6167908	           0.1758118
2678000000	          -0.6123047	           0.1801147	          -0.2492371	          -0.7159424	          -0.2492371	          -0.7197876	          -0.6152649	           0.1772461
2684500000	          -0.6100464	           0.1841431	          -0.2528076	          -0.7164612	          -0.2528381	          -0.7206116	          -0.6126404	            0.181488
2691000000	          -0.6081238	           0.1868286	           -0.257019	          -0.7178345	          -0.2579651	          -0.7224121	          -0.6104126	           0.1846008
2697500000	          -0.6046753	           0.1922607	           -0.262085	          -0.7180481	           -0.262085	          -0.7214355	          -0.6071167	           0.1907043
2704000000	          -0.6008301	           0.1958313	          -0.2681885	          -0.7180481	           -0.266571	          -0.7207031	          -0.6029968	           0.1945801
2710500000	          -0.5956726	             0.20047	           -0.271759	          -0.7176514	          -0.2684631	          -0.7203979	          -0.5979614	            0.199707
2717000000	          -0.5908203	            0.202301	          -0.2754211	          -0.7174072	          -0.2722168	          -0.7213745	          -0.5940552	           0.2014771
2723500000	          -0.5858765	           0.2064209	          -0.2785339	          -0.7195435	          -0.2755737	          -0.7227783	          -0.5894165	           0.2053833
2730000000	          -0.5814209	           0.2070618	          -0.2835388	          -0.7213135	          -0.2817688	          -0.7245483	          -0.5853882	           0.2061768
2736500000	          -0.5761719	           0.2101746	          -0.2893066	          -0.7221069	          -0.2879639	          -0.7244568	          -0.5809326	           0.2092896
2743000000	          -0.5715637	           0.2102356	          -0.2965698	          -0.7225952	           -0.295105	          -0.7232971	          -0.5762939	           0.2090759
2749500000	          -0.5675049	           0.2123108	           -0.301239	          -0.7210083	            -0.29953	          -0.7223511	          -0.5717468	           0.2109375
2756000000	          -0.5648804	           0.2112427	          -0.3058167	           -0.719574	          -0.3046265	          -0.7213135	           -0.569458	           0.2097778
2762500000	          -0.5623779	           0.2134399	          -0.3095703	           -0.719635	          -0.3085327	          -0.7213745	          -0.5666199	           0.2119751
2769000000	          -0.5603333	           0.2136841	          -0.3148193	          -0.7206421	          -0.3135376	          -0.7219543	           -0.565155	           0.2125854
2775500000	          -0.5576782	           0.2176208	          -0.3203735	          -0.7209167	          -0.3190918	          -0.7218323	          -0.5621643	           0.2158813
2782000000	          -0.5552368	           0.2186279	          -0.3261414	          -0.7193909	          -0.3243713	          -0.7209778	           -0.559906	           0.2171631
2788500000	          -0.5520935	           0.2229614	          -0.3291931	          -0.7175598	          -0.3282166	            -0.72052	          -0.5569763	           0.2212219
2795000000	          -0.5498962	           0.2254028	          -0.3319702	          -0.7167053	          -0.3314514	          -0.7202148	          -0.5546265	           0.2233276
2801500000	          -0.5460205	           0.2306213	          -0.3347778	          -0.7174988	          -0.3355408	          -0.7208252	          -0.5507202	           0.2282104
2808000000	          -0.5415955	           0.2325745	          -0.3387451	           -0.718811	          -0.3401794	           -0.720459	          -0.5468445	            0.230957
2814500000	          -0.5361938	           0.2376709	          -0.3435669	          -0.7210083	          -0.3448486	            -0.72052	          -0.5420227	           0.2361755
2821000000	          -0.5310059	            0.239502	          -0.3487854	          -0.7210693	          -0.3486328	          -0.7203369	          -0.5366821	           0.2373352
2827500000	           -0.525177	           0.2426758	          -0.3539429	          -0.7210083	          -0.3531189	          -0.7209167	            -0.53125	           0.2406311
2834000000	          -0.5196533	           0.2430725	          -0.3583984	          -0.7200623	          -0.3568726	          -0.7217102	          -0.5265503	           0.2411499
2840500000	          -0.5144958	           0.2458801	          -0.3624573	          -0.7202759	          -0.3620605	          -0.7234802	          -0.5215149	           0.2425232
2847000000	          -0.5093994	           0.2449341	          -0.3660583	          -0.7208862	          -0.3678894	          -0.7244568	           -0.517334	           0.2410278
2853500000	          -0.5046387	           0.2459412	          -0.3706665	          -0.7227478	          -0.3746338	          -0.7250977	           -0.513092	           0.2420654
2860000000	          -0.5014648	           0.2445374	          -0.3770752	          -0.7244263	          -0.3805237	          -0.7250977	          -0.5102234	           0.2402039
2866500000	          -0.4987488	           0.2454376	           -0.383728	          -0.7243347	           -0.385437	           -0.724762	          -0.5070496	            0.240509
2873000000	          -0.4969788	           0.2456665	          -0.3909607	          -0.7241821	           -0.390686	          -0.7242432	          -0.5052185	            0.239502
2879500000	          -0.4945068	           0.2476349	          -0.3970642	          -0.7229004	          -0.3962708	          -0.7247314	            -0.50354	           0.2414246
2886000000	          -0.4931641	           0.2486267	          -0.4032593	          -0.7224121	          -0.4029846	          -0.7240601	          -0.5020447	           0.2423706
2892500000	           -0.491333	           0.2524872	          -0.4090271	          -0.7208252	          -0.4096985	          -0.7227478	          -0.5001831	           0.2464905
2899000000	          -0.4889069	           0.2548981	          -0.4152222	          -0.7192688	          -0.4156494	          -0.7198181	          -0.4977417	           0.2505035
2905500000	           -0.484787	           0.2593384	          -0.4202271	          -0.7175293	          -0.4199524	          -0.7175293	          -0.4938354	           0.2551575
2912000000	          -0.4806671	           0.2626495	          -0.4244995	          -0.7163696	          -0.4234009	          -0.7162781	          -0.4902344	           0.2573547
2918500000	          -0.4758453	           0.2671051	          -0.4290466	          -0.7157593	          -0.4276123	          -0.7169495	          -0.4848938	           0.2611694
2925000000	          -0.4686279	           0.2696686	          -0.4338379	          -0.7145691	          -0.4325867	          -0.7168579	          -0.4774628	           0.2627258
2931500000	          -0.4618835	           0.2722321	          -0.4392395	          -0.7137146	          -0.4381714	          -0.7162781	           -0.469635	           0.2662506
2938000000	          -0.4558563	           0.2711639	          -0.4455261	          -0.7133484	           -0.443573	          -0.7154236	          -0.4635773	           0.2652283
2944500000	           -0.450592	            0.271225	          -0.4508362	          -0.7122803	          -0.4492798	          -0.7141724	          -0.4577637	           0.2653809
2951000000	          -0.4457855	           0.2690887	          -0.4570007	          -0.7108459	          -0.4539185	          -0.7120667	          -0.4523315	           0.2623596
2957500000	          -0.4412384	           0.2686615	           -0.461792	          -0.7096252	          -0.4579773	          -0.7108765	          -0.4468689	           0.2620544
2964000000	          -0.4379578	           0.2670746	          -0.4667664	          -0.7088623	          -0.4620056	          -0.7107544	          -0.4439697	           0.2599335
2970500000	           -0.434967	           0.2673492	          -0.4718933	          -0.7082825	          -0.4682617	          -0.7111511	          -0.4406128	           0.2598877
2977000000	          -0.4333344	           0.2656097	          -0.4793396	          -0.7088928	          -0.4750366	          -0.7116394	          -0.4390869	           0.2584991
2983500000	          -0.4317627	            0.266983	          -0.4867249	          -0.7072144	          -0.4826965	          -0.7094727	          -0.4367371	           0.2604065
2990000000	          -0.4303284	           0.2676697	          -0.4944153	          -0.7037964	          -0.4901123	           -0.706543	          -0.4358063	           0.2619019
2996500000	          -0.4285736	           0.2704468	          -0.4998779	          -0.7004395	          -0.4955444	          -0.7034912	          -0.4331512	           0.2653351
3003000000	          -0.4256287	           0.2725677	          -0.5050049	          -0.6973267	           -0.500824	          -0.7010803	          -0.4305115	           0.2671356
3009500000	          -0.4227753	           0.2765656	           -0.510437	          -0.6952209	          -0.5065613	          -0.6989746	          -0.4268036	           0.2710724
3016000000	           -0.418396	           0.2786102	          -0.5160828	          -0.6928101	          -0.5132751	          -0.6961365	          -0.4223175	           0.2733154
3022500000	          -0.4132996	            0.281601	          -0.5218201	          -0.6897583	          -0.5183105	          -0.6929932	           -0.416626	            0.276825
3029000000	          -0.4074097	             0.28302	          -0.5266418	          -0.6851501	          -0.5235901	          -0.6894836	          -0.4099731	           0.2781067
3035500000	          -0.4008484	           0.2846527	          -0.5305786	          -0.6829529	          -0.5272827	          -0.6867676	          -0.4037933	            0.279953
3042000000	          -0.3950348	           0.2845764	          -0.5350342	          -0.6812744	          -0.5319214	          -0.6847229	           -0.397934	            0.279541
3048500000	          -0.3894958	           0.2843781	          -0.5396423	          -0.6800232	          -0.5372009	          -0.6833801	          -0.3916931	           0.2805023
3055000000	            -0.38414	           0.2831268	          -0.5462952	          -0.6781616	          -0.5441284	          -0.6809082	          -0.3867188	           0.2791748
3061500000	          -0.3793945	           0.2826538	          -0.5520325	          -0.6754456	          -0.5501404	          -0.6786194	          -0.3812561	           0.2794342
3068000000	          -0.3751221	           0.2811279	          -0.5596924	          -0.6711731	          -0.5577087	          -0.6739502	          -0.3766479	           0.2783661
3074500000	          -0.3705597	           0.2804565	          -0.5652161	          -0.6672363	          -0.5622253	          -0.6699219	          -0.3721771	           0.2783661
3081000000	          -0.3669128	           0.2782745	          -0.5691833	          -0.6613159	          -0.5671997	           -0.665863	          -0.3690338	           0.2764435
3087500000	          -0.3635864	           0.2776337	           -0.571991	          -0.6585083	          -0.5715332	          -0.6627808	          -0.3662415	           0.2766876
3094000000	           -0.361145	           0.2755585	           -0.576355	           -0.655304	          -0.5767517	          -0.6595459	          -0.3644714	           0.2758484
3100500000	          -0.3582001	           0.2762299	          -0.5813599	           -0.653656	          -0.5817566	          -0.6559143	          -0.3617706	           0.2770081
3107000000	          -0.3553467	           0.2754517	          -0.5886841	          -0.6488953	          -0.5862122	           -0.650116	          -0.3596649	            0.276886
3113500000	          -0.3526001	           0.2759552	          -0.5924072	          -0.6431274	          -0.5891418	          -0.6460266	           -0.356308	            0.277359
3120000000	          -0.3511658	           0.2739716	          -0.5944519	          -0.6355896	           -0.590271	          -0.6417236	          -0.3552399	           0.2748871
3126500000	          -0.3506622	           0.2759552	          -0.5932922	          -0.6338806	          -0.5919189	          -0.6406555	          -0.3551941	           0.2763367
3133000000	          -0.3482361	           0.2797089	          -0.5950317	          -0.6350098	          -0.5968933	          -0.6409912	          -0.3539886	           0.2792358
3139500000	          -0.3432465	           0.2828522	          -0.6003418	          -0.6355286	          -0.6029358	          -0.6391907	           -0.349411	           0.2829132
3146000000	          -0.3371124	           0.2842102	          -0.6077271	          -0.6339111	           -0.609436	          -0.6337891	          -0.3430328	           0.2840729
3152500000	          -0.3303223	            0.285553	          -0.6138306	          -0.6300049	          -0.6127014	          -0.6302795	          -0.3367004	           0.2852173
3159000000	          -0.3244019	           0.2841492	          -0.6184998	           -0.625061	          -0.6158447	          -0.6270447	          -0.3308105	           0.2842255
3165500000	          -0.3191528	            0.285202	          -0.6220093	          -0.6231689	          -0.6191406	          -0.6261597	          -0.3262177	           0.2849579
3172000000	           -0.312912	           0.2845001	          -0.6265259	          -0.6206665	          -0.6246948	          -0.6243591	          -0.3215637	           0.2843933
3178500000	          -0.3073578	           0.2847748	          -0.6315002	          -0.6195984	          -0.6304626	          -0.6226501	          -0.3166504	           0.2845306
3185000000	          -0.3031464	            0.282547	          -0.6378479	          -0.6161194	          -0.6358337	          -0.6185913	          -0.3122406	            0.282196
3191500000	          -0.2987366	           0.2814941	          -0.6428528	          -0.6123962	          -0.6408081	           -0.614502	          -0.3083496	           0.2810364
3198000000	           -0.295578	           0.2786255	          -0.6468506	          -0.6068115	            -0.64328	          -0.6091614	          -0.3058777	           0.2775116
3204500000	          -0.2931976	           0.2775879	          -0.6499023	          -0.6032104	          -0.6454163	          -0.6060486	          -0.3034363	           0.2767181
3211000000	          -0.2907257	            0.276474	          -0.6527405	          -0.5999451	          -0.6491394	          -0.6039429	          -0.3010864	           0.2749329
3217500000	          -0.2875824	           0.2766418	          -0.6568298	          -0.5986023	          -0.6536865	          -0.6021118	          -0.2980194	           0.2748718
3224000000	          -0.2847748	           0.2761383	          -0.6616821	          -0.5969849	          -0.6594849	          -0.5991211	          -0.2947845	           0.2735748
3230500000	          -0.2804413	           0.2763519	          -0.6680603	          -0.5935974	          -0.6639709	          -0.5955505	          -0.2917633	            0.274292
3237000000	          -0.2779388	            0.275528	          -0.6733093	          -0.5890808	          -0.6677551	           -0.590332	          -0.2884827	           0.2737427
3243500000	          -0.2745209	           0.2768402	          -0.6764832	          -0.5852051	          -0.6708984	          -0.5877991	          -0.2853699	           0.2749329
3250000000	          -0.2704468	           0.2770691	          -0.6800842	          -0.5823669	          -0.6749573	          -0.5863037	          -0.2820892	           0.2760315
3256500000	          -0.2654572	           0.2786407	          -0.6836853	          -0.5810242	          -0.6799316	          -0.5845642	          -0.2778168	           0.2773132
3263000000	           -0.260437	           0.2788086	          -0.6898193	          -0.5799561	          -0.6856995	          -0.5821533	          -0.2723694	           0.2772064
3269500000	          -0.2549438	           0.2794647	          -0.6962585	          -0.5776367	          -0.6916199	          -0.5795288	          -0.2680206	           0.2774963
3276000000	          -0.2501068	           0.2773743	          -0.7022095	          -0.5732727	           -0.696991	          -0.5748596	          -0.2633057	           0.2760162
3282500000	          -0.2446594	           0.2768707	          -0.7087402	          -0.5692444	          -0.7011719	          -0.5710754	          -0.2580719	           0.2756042
3289000000	          -0.2402039	           0.2746429	           -0.713623	          -0.5635376	           -0.705658	          -0.5670471	          -0.2536926	           0.2733459
3295500000	          -0.2355347	           0.2736511	          -0.7183533	          -0.5596924	          -0.7105103	          -0.5637512	          -0.2492523	           0.2727509
3302000000	          -0.2306824	           0.2704926	          -0.7224121	          -0.5554504	          -0.7161255	          -0.5597534	          -0.2443542	           0.2694702
3308500000	          -0.2266846	           0.2692871	          -0.7274475	          -0.5514832	          -0.7207642	          -0.5547791	          -0.2402496	           0.2685242
3315000000	          -0.2230377	           0.2661591	           -0.732605	           -0.546814	          -0.7252197	          -0.5497437	          -0.2367249	            0.265213
