! 
! FILENAME TEFLON
# Hz S RI R 50
2600000000	          -0.5921631	          -0.0001831	          -0.0345764	          -0.7998047	           -0.033905	          -0.8045349	          -0.6003418	           0.0022888
2606500000	          -0.5910645	           0.0050354	          -0.0380859	          -0.8019409	          -0.0388184	          -0.8069763	          -0.5977478	           0.0080261
2613000000	          -0.5882874	           0.0075989	          -0.0429077	          -0.8057556	           -0.043335	          -0.8094788	          -0.5954285	           0.0120544
2619500000	          -0.5859985	           0.0131226	          -0.0472107	          -0.8067017	          -0.0489197	          -0.8103943	          -0.5924377	           0.0180664
2626000000	          -0.5818481	            0.015686	          -0.0522461	          -0.8079529	          -0.0517883	          -0.8110962	          -0.5898743	           0.0209045
2632500000	          -0.5774841	            0.020752	          -0.0559692	           -0.808136	          -0.0544739	          -0.8112488	          -0.5865784	           0.0257568
2639000000	          -0.5740662	           0.0209961	          -0.0594177	          -0.8110352	          -0.0575256	          -0.8147583	          -0.5836792	           0.0271301
2645500000	           -0.570343	           0.0231323	          -0.0646362	          -0.8122864	          -0.0629883	          -0.8168335	          -0.5805054	           0.0300293
2652000000	          -0.5675964	            0.020813	          -0.0706482	          -0.8158569	          -0.0698853	          -0.8199768	          -0.5776672	           0.0294495
2658500000	          -0.5670166	           0.0222168	          -0.0769348	          -0.8167419	          -0.0776367	          -0.8194885	          -0.5758972	           0.0319519
2665000000	           -0.566803	           0.0217285	          -0.0842285	          -0.8157959	          -0.0841064	          -0.8187866	          -0.5742798	           0.0316772
2671500000	          -0.5661011	           0.0245667	          -0.0885925	          -0.8147583	          -0.0876465	          -0.8166199	          -0.5725098	           0.0351563
2678000000	          -0.5661621	           0.0253601	          -0.0914307	          -0.8135376	          -0.0906067	          -0.8170166	          -0.5716248	           0.0362549
2684500000	          -0.5664063	           0.0292969	          -0.0946045	          -0.8141479	           -0.093689	          -0.8182373	          -0.5709229	           0.0408325
2691000000	          -0.5661621	           0.0323486	          -0.0979309	          -0.8164063	          -0.0975647	          -0.8203125	          -0.5697937	           0.0442505
2697500000	          -0.5648499	           0.0379639	          -0.1028137	          -0.8169861	           -0.102417	          -0.8199768	          -0.5685425	           0.0502625
2704000000	          -0.5632629	           0.0424194	          -0.1078186	           -0.818573	          -0.1065369	          -0.8197327	          -0.5655212	           0.0547485
2710500000	          -0.5599365	           0.0478516	          -0.1118164	          -0.8177795	          -0.1088562	          -0.8188171	          -0.5618286	           0.0604553
2717000000	          -0.5562744	           0.0506287	          -0.1152954	          -0.8178711	          -0.1123047	          -0.8192139	          -0.5582275	           0.0626831
2723500000	          -0.5527649	           0.0545959	          -0.1175537	          -0.8192444	          -0.1146545	          -0.8208618	          -0.5548706	           0.0665588
2730000000	          -0.5491943	           0.0560303	          -0.1218262	          -0.8213501	          -0.1200867	          -0.8231201	          -0.5519409	           0.0671082
2736500000	          -0.5455627	           0.0595703	          -0.1266785	           -0.822876	          -0.1255493	          -0.8240662	          -0.5487671	           0.0702515
2743000000	          -0.5418396	           0.0599976	          -0.1329041	          -0.8247681	          -0.1329651	           -0.824646	          -0.5454407	           0.0703125
2749500000	          -0.5393677	           0.0620728	          -0.1380005	          -0.8239746	          -0.1372681	          -0.8243408	          -0.5422058	           0.0718384
2756000000	           -0.537384	           0.0606384	          -0.1428528	          -0.8227234	          -0.1417847	           -0.822937	           -0.539917	            0.070282
2762500000	          -0.5365601	           0.0622253	           -0.145874	          -0.8225403	          -0.1450195	          -0.8233643	          -0.5389404	           0.0718994
2769000000	          -0.5362854	           0.0623169	           -0.150177	          -0.8240967	          -0.1498108	          -0.8245544	          -0.5385132	           0.0718384
2775500000	          -0.5363464	           0.0665283	          -0.1552429	          -0.8250732	           -0.154541	           -0.824707	          -0.5374756	           0.0747986
2782000000	          -0.5352173	            0.067749	          -0.1606445	          -0.8247986	          -0.1593628	          -0.8242798	          -0.5368347	           0.0763855
2788500000	          -0.5343628	           0.0727844	          -0.1645508	          -0.8227234	          -0.1628418	          -0.8244934	          -0.5361633	           0.0805969
2795000000	          -0.5335999	           0.0752563	          -0.1670532	          -0.8218689	          -0.1662903	          -0.8239746	          -0.5351257	           0.0830994
2801500000	          -0.5319214	           0.0804749	          -0.1688538	          -0.8218384	           -0.169281	          -0.8249207	          -0.5332947	           0.0881958
2808000000	          -0.5289307	           0.0840454	          -0.1715088	          -0.8233948	          -0.1737976	          -0.8243408	          -0.5308838	           0.0917969
2814500000	          -0.5260315	           0.0900879	          -0.1751709	          -0.8257446	          -0.1773987	          -0.8251343	          -0.5278015	           0.0975647
2821000000	          -0.5220642	           0.0932617	          -0.1799316	          -0.8265381	          -0.1809692	          -0.8247681	          -0.5244141	           0.1001282
2827500000	          -0.5178528	           0.0974426	          -0.1844788	          -0.8265991	          -0.1842651	          -0.8256531	          -0.5202637	           0.1036072
2834000000	          -0.5129395	           0.0982971	          -0.1885681	          -0.8261108	           -0.187561	          -0.8260193	          -0.5162354	           0.1043701
2840500000	           -0.509613	           0.1012878	          -0.1916199	          -0.8259888	          -0.1906128	          -0.8282166	          -0.5120239	           0.1056824
2847000000	          -0.5054321	           0.1008301	          -0.1942139	          -0.8266907	          -0.1943665	            -0.82901	          -0.5088196	           0.1044312
2853500000	           -0.502594	           0.1022339	          -0.1976013	          -0.8282776	          -0.2002869	          -0.8317261	           -0.506012	           0.1056519
2860000000	           -0.500061	            0.100769	          -0.2015991	          -0.8309326	          -0.2052917	          -0.8329163	          -0.5032349	           0.1036377
2866500000	          -0.4986877	           0.1015778	          -0.2073364	          -0.8327026	          -0.2098083	          -0.8328247	          -0.5014038	           0.1040649
2873000000	          -0.4984894	           0.1014252	          -0.2131653	          -0.8337097	          -0.2137146	          -0.8330078	           -0.500885	           0.1030273
2879500000	          -0.4980011	           0.1037598	          -0.2189026	          -0.8340454	          -0.2182312	          -0.8349304	          -0.5011902	           0.1047974
2886000000	          -0.4981537	           0.1046295	          -0.2242126	          -0.8340759	          -0.2237854	          -0.8358459	          -0.5013428	           0.1064148
2892500000	          -0.4987488	           0.1090851	          -0.2299194	          -0.8343506	          -0.2304993	          -0.8359375	          -0.5021362	           0.1104126
2899000000	          -0.4988098	           0.1117706	          -0.2355042	          -0.8335266	          -0.2366638	          -0.8337402	          -0.5021362	           0.1140747
2905500000	          -0.4972992	           0.1176147	          -0.2402649	          -0.8331299	          -0.2412109	          -0.8317871	          -0.5010681	           0.1196594
2912000000	           -0.494873	           0.1214294	          -0.2442627	           -0.831604	          -0.2440796	          -0.8304749	          -0.4989777	           0.1231537
2918500000	          -0.4915009	           0.1262817	          -0.2486877	          -0.8316345	          -0.2466431	          -0.8312683	          -0.4951019	           0.1277771
2925000000	          -0.4865723	           0.1315918	          -0.2528992	          -0.8312988	          -0.2510071	          -0.8322144	          -0.4891815	           0.1315765
2931500000	          -0.4816742	           0.1355743	          -0.2571106	          -0.8310547	           -0.256012	          -0.8323975	          -0.4825745	           0.1363678
2938000000	          -0.4759674	           0.1356506	          -0.2627258	          -0.8317871	           -0.260376	          -0.8323975	           -0.477356	           0.1367188
2944500000	          -0.4714508	           0.1365662	          -0.2671509	           -0.831604	          -0.2654114	          -0.8322449	          -0.4724579	           0.1373444
2951000000	          -0.4668732	           0.1351624	          -0.2723389	          -0.8313599	          -0.2695007	          -0.8306274	          -0.4676666	           0.1354675
2957500000	          -0.4641113	           0.1352081	          -0.2763062	          -0.8305054	          -0.2731018	           -0.829895	          -0.4635773	           0.1359863
2964000000	          -0.4616547	           0.1340332	           -0.280426	          -0.8302307	          -0.2762146	          -0.8293762	          -0.4615631	           0.1341248
2970500000	          -0.4596863	           0.1347198	          -0.2846069	          -0.8304749	          -0.2797852	          -0.8312378	          -0.4589081	           0.1339111
2977000000	          -0.4593506	           0.1330719	          -0.2903442	          -0.8328857	          -0.2853088	          -0.8331604	          -0.4581604	           0.1327057
2983500000	          -0.4594727	           0.1343536	          -0.2965088	          -0.8339844	          -0.2930298	          -0.8331909	          -0.4576416	           0.1346588
2990000000	          -0.4592133	           0.1351776	          -0.3037109	          -0.8331299	          -0.2995911	          -0.8330994	          -0.4584656	           0.1353607
2996500000	          -0.4593048	           0.1373749	          -0.3099365	          -0.8308411	          -0.3049622	          -0.8317871	          -0.4579926	            0.138916
3003000000	          -0.4589691	            0.140976	          -0.3153381	          -0.8288574	          -0.3102722	          -0.8300476	          -0.4576721	           0.1416931
3009500000	          -0.4581451	           0.1452942	          -0.3198547	          -0.8276978	          -0.3154907	          -0.8294983	          -0.4559021	            0.146225
3016000000	          -0.4558105	           0.1488647	            -0.32547	          -0.8268127	           -0.321991	          -0.8281555	           -0.454071	           0.1493683
3022500000	           -0.452774	           0.1530457	          -0.3309021	          -0.8257751	          -0.3270874	          -0.8259583	          -0.4508972	           0.1543579
3029000000	          -0.4487457	           0.1564026	          -0.3361816	          -0.8216248	          -0.3323975	          -0.8237305	          -0.4462433	           0.1573639
3035500000	           -0.443924	           0.1600647	          -0.3399963	          -0.8200073	           -0.335907	          -0.8216248	          -0.4418488	            0.160553
3042000000	          -0.4389648	           0.1612244	          -0.3437195	          -0.8192749	          -0.3396912	          -0.8201294	           -0.436676	           0.1616058
3048500000	          -0.4343262	           0.1628571	          -0.3473511	           -0.818512	          -0.3442383	           -0.819397	          -0.4317627	           0.1636047
3055000000	          -0.4298096	           0.1623993	          -0.3525696	          -0.8186035	          -0.3499451	          -0.8199463	          -0.4274445	           0.1634216
3061500000	          -0.4258728	           0.1629791	          -0.3581543	          -0.8178101	           -0.355896	          -0.8196106	          -0.4234161	           0.1646576
3068000000	          -0.4227448	           0.1621094	          -0.3655701	           -0.816803	          -0.3632202	          -0.8181458	          -0.4207458	            0.164093
3074500000	          -0.4196625	           0.1629028	          -0.3719788	          -0.8140869	          -0.3690186	          -0.8152161	          -0.4181366	           0.1656799
3081000000	          -0.4171753	           0.1618958	          -0.3775024	          -0.8095398	          -0.3738403	          -0.8118286	          -0.4162903	           0.1650848
3087500000	          -0.4151001	           0.1625214	          -0.3800354	          -0.8063354	          -0.3780823	          -0.8094482	          -0.4150391	           0.1660156
3094000000	          -0.4142303	           0.1617126	          -0.3836975	          -0.8044434	          -0.3833008	          -0.8080139	          -0.4152985	            0.165863
3100500000	          -0.4134827	            0.163147	          -0.3878174	          -0.8036194	           -0.388031	          -0.8058472	           -0.414978	           0.1678925
3107000000	          -0.4125824	           0.1641693	          -0.3951416	          -0.8023682	          -0.3936768	           -0.801239	          -0.4152374	           0.1690369
3113500000	           -0.411438	           0.1666565	          -0.4002991	          -0.7980957	          -0.3965759	          -0.7975769	          -0.4138641	           0.1719971
3120000000	          -0.4096832	           0.1669922	          -0.4046021	          -0.7930298	          -0.3988342	          -0.7952576	          -0.4129639	           0.1726379
3126500000	          -0.4088287	           0.1697845	          -0.4057617	          -0.7900391	          -0.4015198	           -0.795166	          -0.4117126	           0.1750641
3133000000	          -0.4073486	           0.1721802	          -0.4070129	          -0.7895203	           -0.406189	          -0.7954102	          -0.4104767	           0.1771698
3139500000	          -0.4046173	           0.1759644	          -0.4106445	          -0.7897034	           -0.412323	          -0.7944336	          -0.4078522	           0.1806793
3146000000	          -0.4005127	            0.178772	          -0.4165039	          -0.7896729	          -0.4191284	          -0.7901611	          -0.4036407	           0.1832428
3152500000	          -0.3958588	           0.1821747	          -0.4222107	          -0.7877808	          -0.4227295	          -0.7865906	          -0.3987885	           0.1864777
3159000000	           -0.390625	           0.1828461	          -0.4269104	          -0.7842407	          -0.4255371	          -0.7831726	          -0.3937073	           0.1871338
3165500000	          -0.3863983	           0.1848145	          -0.4304504	          -0.7825317	          -0.4276428	          -0.7821655	          -0.3900909	           0.1887512
3172000000	          -0.3815613	           0.1858673	          -0.4344177	          -0.7811279	          -0.4312439	          -0.7813416	          -0.3866577	           0.1887817
3178500000	          -0.3778076	           0.1872101	          -0.4384155	          -0.7806396	          -0.4358215	          -0.7810974	           -0.382843	           0.1900024
3185000000	          -0.3745575	            0.186615	          -0.4433899	          -0.7790222	          -0.4414063	          -0.7789307	          -0.3799438	           0.1889496
3191500000	            -0.37117	            0.186615	          -0.4486694	          -0.7770691	          -0.4464417	          -0.7762451	          -0.3767395	           0.1888885
3198000000	           -0.368988	           0.1848145	          -0.4535828	          -0.7733459	          -0.4499512	          -0.7713928	          -0.3751221	           0.1867828
3204500000	          -0.3679657	           0.1842651	          -0.4567871	          -0.7697144	          -0.4519653	          -0.7677917	          -0.3736572	           0.1860199
3211000000	          -0.3674316	           0.1837769	          -0.4589539	          -0.7664185	           -0.453949	          -0.7661743	          -0.3728943	            0.184845
3217500000	          -0.3660889	           0.1855621	          -0.4618225	          -0.7658386	          -0.4575195	          -0.7657166	          -0.3716888	           0.1862335
3224000000	          -0.3654327	           0.1866302	          -0.4650574	          -0.7657471	          -0.4621277	          -0.7648926	          -0.3704834	            0.186142
3230500000	           -0.363266	           0.1889648	          -0.4703674	          -0.7647095	          -0.4666138	          -0.7628784	          -0.3693237	           0.1885071
3237000000	          -0.3617096	           0.1890411	          -0.4759827	          -0.7616577	          -0.4709473	          -0.7584839	          -0.3674316	            0.189209
3243500000	          -0.3600159	           0.1912231	          -0.4801636	          -0.7590637	          -0.4735107	          -0.7562256	          -0.3652039	           0.1918335
3250000000	          -0.3583221	           0.1931458	          -0.4822693	          -0.7557068	          -0.4753723	          -0.7549438	          -0.3641815	           0.1934662
3256500000	          -0.3557587	           0.1967316	          -0.4842224	          -0.7559509	          -0.4784851	          -0.7558289	           -0.361908	           0.1969147
3263000000	          -0.3523102	           0.1998749	          -0.4882202	          -0.7564392	           -0.482666	          -0.7556458	          -0.3584595	           0.1994019
3269500000	          -0.3483582	           0.2030945	           -0.493042	          -0.7572937	          -0.4877625	          -0.7555847	          -0.3549957	           0.2019806
3276000000	          -0.3437042	             0.20401	          -0.4995117	           -0.756012	          -0.4936523	          -0.7529602	           -0.350769	           0.2028656
3282500000	          -0.3388214	           0.2051239	           -0.506134	          -0.7545776	          -0.4975891	          -0.7503967	          -0.3466644	           0.2039185
3289000000	          -0.3358765	           0.2050934	          -0.5105591	          -0.7506409	          -0.5014648	          -0.7475586	          -0.3433228	           0.2036438
3295500000	          -0.3320313	           0.2055969	          -0.5160217	          -0.7485962	          -0.5058899	          -0.7461548	          -0.3397064	           0.2043457
3302000000	          -0.3282166	           0.2049561	           -0.519928	          -0.7454834	          -0.5112915	          -0.7442627	          -0.3361816	           0.2029572
3308500000	          -0.3256683	           0.2047119	          -0.5241394	          -0.7436829	          -0.5158081	           -0.741394	          -0.3330231	           0.2033081
3315000000	          -0.3227081	           0.2032623	           -0.529541	          -0.7407837	          -0.5207214	          -0.7383118	          -0.3300934	            0.201355
