! 
! FILENAME FOAM2_MUT_20mm_TG
# Hz S RI R 50
2600000000	          -0.5171509	           0.0778809	           0.0116272	           -0.617981	           0.0187378	          -0.6202698	          -0.5265198	           0.0876465
2606500000	          -0.5153198	           0.0808105	            0.007019	          -0.6192017	           0.0141602	          -0.6221313	          -0.5242615	           0.0897217
2613000000	          -0.5133667	           0.0838623	           0.0023804	          -0.6199951	           0.0095215	          -0.6235352	          -0.5219116	           0.0919189
2619500000	          -0.5114136	           0.0870972	           -0.002594	          -0.6209412	           0.0046997	          -0.6250305	          -0.5197449	           0.0942993
2626000000	          -0.5096436	           0.0905762	          -0.0075684	          -0.6219482	          -0.0003357	          -0.6265259	          -0.5177917	           0.0968323
2632500000	          -0.5075073	           0.0939636	          -0.0126038	          -0.6228027	          -0.0053711	          -0.6278076	          -0.5156555	           0.0995178
2639000000	           -0.505188	           0.0973816	          -0.0175171	          -0.6231995	           -0.010376	            -0.62854	          -0.5133667	           0.1021729
2645500000	          -0.5029907	           0.1008301	          -0.0225525	          -0.6237793	          -0.0154419	          -0.6297302	           -0.511322	           0.1048889
2652000000	          -0.5009155	            0.104248	          -0.0275574	          -0.6244812	          -0.0205078	          -0.6305847	          -0.5092773	           0.1075134
2658500000	          -0.4986267	           0.1076965	          -0.0325623	              -0.625	          -0.0255432	          -0.6314392	          -0.5072632	             0.11026
2665000000	          -0.4963074	           0.1110535	          -0.0373535	          -0.6253662	          -0.0304871	          -0.6322327	          -0.5052185	           0.1129456
2671500000	           -0.493927	           0.1143188	          -0.0422974	          -0.6257935	          -0.0354614	          -0.6329346	          -0.5032043	           0.1156006
2678000000	          -0.4916229	           0.1175842	          -0.0470276	          -0.6261902	          -0.0404053	          -0.6336365	          -0.5012817	           0.1182556
2684500000	          -0.4890747	           0.1207581	          -0.0518799	          -0.6265259	          -0.0452881	          -0.6342773	          -0.4992676	           0.1208801
2691000000	          -0.4866333	           0.1237946	           -0.056488	          -0.6267395	          -0.0500793	          -0.6347656	          -0.4973602	           0.1233978
2697500000	          -0.4840851	           0.1267395	          -0.0610962	          -0.6270142	          -0.0547791	          -0.6352844	          -0.4954376	            0.125885
2704000000	          -0.4816589	           0.1296234	          -0.0656433	          -0.6274109	          -0.0594482	          -0.6358643	          -0.4935913	           0.1283112
2710500000	           -0.479126	           0.1323853	          -0.0700989	          -0.6277466	          -0.0641174	          -0.6364441	          -0.4917603	           0.1307526
2717000000	           -0.476593	           0.1350555	          -0.0744629	          -0.6279907	           -0.068634	          -0.6369019	          -0.4899445	           0.1331177
2723500000	          -0.4740753	           0.1375885	          -0.0788269	          -0.6282654	          -0.0730591	          -0.6374207	          -0.4881592	           0.1354523
2730000000	          -0.4715424	           0.1400604	          -0.0830994	          -0.6286316	          -0.0775146	            -0.63797	          -0.4864349	           0.1377563
2736500000	          -0.4690094	           0.1424408	          -0.0873413	          -0.6289978	          -0.0818787	          -0.6384888	          -0.4847107	           0.1400146
2743000000	          -0.4664917	           0.1446533	          -0.0914001	          -0.6293335	          -0.0861206	          -0.6389465	          -0.4830322	           0.1422119
2749500000	          -0.4638824	            0.146759	          -0.0954895	          -0.6296082	           -0.090271	          -0.6394043	           -0.481308	           0.1443329
2756000000	          -0.4614105	           0.1488037	          -0.0995178	          -0.6300354	          -0.0944214	          -0.6398926	          -0.4796448	           0.1464844
2762500000	          -0.4589233	           0.1506958	          -0.1034851	          -0.6304321	          -0.0985413	          -0.6404419	          -0.4780273	           0.1486053
2769000000	          -0.4563904	           0.1524811	          -0.1073608	          -0.6307983	          -0.1025085	          -0.6409607	          -0.4763947	           0.1506958
2775500000	          -0.4539032	           0.1541901	          -0.1112671	          -0.6311951	          -0.1065369	          -0.6414795	          -0.4747772	           0.1527557
2782000000	          -0.4514313	           0.1558228	          -0.1151123	          -0.6316223	          -0.1104736	          -0.6419983	          -0.4731293	           0.1548004
2788500000	          -0.4489288	           0.1573334	          -0.1189575	           -0.632019	          -0.1143799	          -0.6424866	          -0.4714508	           0.1567993
2795000000	          -0.4465027	           0.1587677	          -0.1226501	          -0.6323853	          -0.1182251	          -0.6430054	          -0.4698486	           0.1587982
2801500000	           -0.444046	           0.1600494	          -0.1264038	          -0.6327515	          -0.1220398	          -0.6434937	          -0.4681244	           0.1607513
2808000000	          -0.4416656	           0.1613312	          -0.1300964	          -0.6332397	           -0.125824	           -0.644043	          -0.4664612	           0.1627197
2814500000	            -0.43927	           0.1625061	          -0.1338501	          -0.6336365	          -0.1296082	          -0.6445618	          -0.4647369	           0.1646729
2821000000	          -0.4369202	           0.1636047	          -0.1374817	          -0.6340332	          -0.1333618	            -0.64505	          -0.4630127	            0.166626
2827500000	          -0.4345703	           0.1646271	          -0.1412048	          -0.6343994	           -0.137146	          -0.6454773	          -0.4612122	           0.1685486
2834000000	           -0.432251	           0.1656036	          -0.1448975	          -0.6347656	          -0.1408691	          -0.6459961	          -0.4593964	           0.1704865
2840500000	          -0.4299316	           0.1665039	          -0.1485901	          -0.6351318	          -0.1446228	          -0.6463928	          -0.4575348	           0.1724091
2847000000	          -0.4276733	           0.1673737	          -0.1522827	          -0.6354065	          -0.1483765	          -0.6468506	           -0.455658	           0.1743164
2853500000	          -0.4253845	           0.1681671	          -0.1560059	          -0.6356812	          -0.1521301	          -0.6472168	          -0.4536591	           0.1761932
2860000000	           -0.423172	           0.1689453	          -0.1596985	          -0.6359558	          -0.1559143	           -0.647522	          -0.4516296	           0.1780548
2866500000	          -0.4209595	           0.1696777	          -0.1634216	          -0.6361694	          -0.1596985	          -0.6478577	          -0.4495544	           0.1799164
2873000000	          -0.4187164	           0.1703644	          -0.1671448	          -0.6362305	          -0.1633911	          -0.6481018	          -0.4473724	           0.1817627
2879500000	          -0.4165344	           0.1710205	          -0.1709595	          -0.6363831	          -0.1672363	          -0.6483765	          -0.4451599	            0.183609
2886000000	          -0.4143677	           0.1716614	          -0.1746826	          -0.6364746	          -0.1710815	          -0.6485291	          -0.4428711	            0.185379
2892500000	          -0.4121857	           0.1722717	          -0.1784668	          -0.6364441	          -0.1749268	          -0.6486206	           -0.440506	           0.1871338
2899000000	          -0.4100189	           0.1728821	           -0.182251	           -0.636322	           -0.178772	          -0.6486816	          -0.4380646	           0.1888885
2905500000	          -0.4078522	           0.1734161	          -0.1860046	          -0.6361389	          -0.1826782	          -0.6486206	          -0.4355316	           0.1905518
2912000000	          -0.4057465	           0.1739807	          -0.1898499	          -0.6360168	          -0.1864929	          -0.6486206	          -0.4329987	           0.1921997
2918500000	          -0.4035797	           0.1745148	           -0.193634	          -0.6357117	          -0.1904297	           -0.648468	          -0.4303284	           0.1937866
2925000000	          -0.4014587	           0.1750793	          -0.1974792	           -0.635376	          -0.1943665	          -0.6482849	          -0.4276428	           0.1953583
2931500000	          -0.3993683	           0.1755981	          -0.2013245	          -0.6349792	          -0.1983032	          -0.6479797	          -0.4248505	           0.1968689
2938000000	          -0.3972473	           0.1761322	          -0.2051392	          -0.6345215	          -0.2022705	          -0.6477051	          -0.4220581	           0.1983337
2944500000	          -0.3951416	           0.1766357	          -0.2090149	          -0.6339722	          -0.2062378	          -0.6472473	          -0.4191589	            0.199707
2951000000	          -0.3930206	           0.1771851	          -0.2128296	          -0.6333618	          -0.2102051	           -0.646759	           -0.416214	           0.2010345
2957500000	          -0.3909149	           0.1776886	          -0.2166748	          -0.6326294	          -0.2141724	          -0.6462097	           -0.413208	           0.2023163
2964000000	          -0.3888092	           0.1781921	          -0.2204895	          -0.6319275	          -0.2181396	          -0.6455994	          -0.4101868	           0.2035065
2970500000	           -0.386673	           0.1787109	          -0.2243042	           -0.631073	          -0.2221375	          -0.6448975	          -0.4070892	           0.2046356
2977000000	          -0.3845825	            0.179245	          -0.2281189	           -0.630249	          -0.2261047	           -0.644165	          -0.4040222	           0.2057037
2983500000	          -0.3824158	           0.1797333	          -0.2319031	          -0.6292419	           -0.230072	          -0.6432495	          -0.4008636	           0.2066803
2990000000	          -0.3803101	           0.1802673	          -0.2356567	          -0.6282959	          -0.2340698	           -0.642395	          -0.3977356	           0.2075958
2996500000	          -0.3781433	           0.1807709	          -0.2394409	          -0.6271973	          -0.2380371	          -0.6413574	          -0.3945313	           0.2084351
3003000000	          -0.3760376	           0.1812744	          -0.2431641	          -0.6260986	          -0.2419434	          -0.6403809	          -0.3913574	            0.209198
3009500000	          -0.3739014	           0.1817627	          -0.2468262	          -0.6249084	          -0.2458801	          -0.6392517	          -0.3881531	           0.2098694
3016000000	          -0.3717499	            0.182251	          -0.2505188	          -0.6237793	          -0.2497864	          -0.6381836	           -0.384964	           0.2104645
3022500000	          -0.3696136	            0.182785	          -0.2542114	          -0.6225891	          -0.2536926	          -0.6370239	          -0.3818054	           0.2110291
3029000000	          -0.3674164	           0.1832581	           -0.257843	          -0.6212769	          -0.2575378	          -0.6357422	          -0.3786011	           0.2115021
3035500000	          -0.3652802	           0.1837311	          -0.2614441	          -0.6199341	          -0.2613831	          -0.6344299	          -0.3754272	           0.2118988
3042000000	          -0.3630829	           0.1842346	          -0.2650452	          -0.6185913	          -0.2652283	          -0.6330872	          -0.3722992	           0.2122345
3048500000	          -0.3609161	           0.1847076	          -0.2686157	          -0.6171875	          -0.2690125	          -0.6316833	          -0.3691711	           0.2125092
3055000000	          -0.3587189	           0.1851654	          -0.2721558	          -0.6157837	          -0.2727966	          -0.6302795	          -0.3660736	           0.2127228
3061500000	          -0.3565063	           0.1856079	          -0.2756653	          -0.6143494	          -0.2765808	          -0.6288147	          -0.3630066	           0.2128754
3068000000	          -0.3543243	           0.1860657	          -0.2791443	           -0.612915	          -0.2802734	          -0.6273499	          -0.3599548	           0.2129669
3074500000	          -0.3521423	           0.1865082	          -0.2825928	          -0.6114502	          -0.2840271	           -0.625824	          -0.3569641	            0.213028
3081000000	           -0.349884	           0.1869507	          -0.2860413	          -0.6099548	          -0.2876587	          -0.6242981	          -0.3539886	           0.2130432
3087500000	          -0.3477173	           0.1873474	          -0.2894897	            -0.60849	          -0.2913208	          -0.6227417	          -0.3510895	           0.2129974
3094000000	          -0.3454742	           0.1877289	          -0.2928772	          -0.6070251	          -0.2949829	          -0.6211243	          -0.3481903	           0.2129211
3100500000	          -0.3432617	           0.1881104	          -0.2962952	          -0.6054688	           -0.298584	          -0.6195068	          -0.3453522	           0.2127991
3107000000	          -0.3410034	           0.1884613	          -0.2996521	          -0.6039429	           -0.302124	          -0.6178589	          -0.3425446	           0.2126465
3113500000	          -0.3387604	           0.1887817	           -0.303009	           -0.602356	          -0.3056641	          -0.6161804	          -0.3397675	           0.2124481
3120000000	          -0.3365173	           0.1891174	          -0.3063354	          -0.6008301	          -0.3092041	          -0.6145325	          -0.3370514	           0.2122498
3126500000	           -0.334259	           0.1893921	          -0.3096313	          -0.5992432	          -0.3127136	           -0.612793	          -0.3343506	           0.2120209
3133000000	          -0.3320313	           0.1896667	          -0.3129578	          -0.5977173	          -0.3161926	          -0.6111145	          -0.3317413	           0.2117615
3139500000	          -0.3298035	           0.1899261	          -0.3163147	          -0.5961304	          -0.3197021	          -0.6094055	          -0.3291473	           0.2115021
3146000000	          -0.3275452	           0.1901398	          -0.3195801	          -0.5945435	          -0.3231201	          -0.6076965	          -0.3265839	           0.2112122
3152500000	          -0.3252869	           0.1903381	          -0.3228455	           -0.592926	          -0.3265686	           -0.605957	          -0.3240509	            0.210907
3159000000	          -0.3230133	           0.1905365	          -0.3261414	          -0.5913086	          -0.3299561	           -0.604187	          -0.3215637	           0.2106018
3165500000	          -0.3207703	           0.1906586	          -0.3294067	          -0.5896606	           -0.333374	          -0.6023865	          -0.3191071	           0.2102814
3172000000	          -0.3185425	           0.1907959	          -0.3327332	          -0.5880737	           -0.336731	           -0.600647	          -0.3166962	           0.2099609
3178500000	          -0.3163147	           0.1908722	          -0.3359375	          -0.5863953	          -0.3401184	          -0.5988464	          -0.3143311	           0.2096405
3185000000	          -0.3140717	           0.1909332	          -0.3392334	          -0.5847168	          -0.3434448	          -0.5970154	          -0.3119659	           0.2093048
3191500000	          -0.3118744	            0.190979	          -0.3424988	          -0.5830383	          -0.3468323	          -0.5952148	          -0.3096466	           0.2089691
3198000000	          -0.3096466	           0.1909637	          -0.3457336	          -0.5813293	          -0.3501587	          -0.5933533	          -0.3073425	           0.2086487
3204500000	          -0.3074341	           0.1909485	           -0.348999	          -0.5796204	          -0.3534851	          -0.5915222	           -0.305069	           0.2082977
3211000000	          -0.3052216	           0.1909027	          -0.3522339	          -0.5778503	           -0.356781	          -0.5896606	          -0.3027954	           0.2079773
3217500000	          -0.3030396	           0.1907959	          -0.3554382	          -0.5760498	          -0.3600769	          -0.5877686	          -0.3005676	           0.2076263
3224000000	          -0.3008881	           0.1906891	          -0.3587036	          -0.5743103	          -0.3634033	           -0.585907	          -0.2983704	           0.2072906
3230500000	          -0.2987366	           0.1905365	          -0.3619385	          -0.5724792	          -0.3666992	          -0.5839844	          -0.2961731	           0.2069702
3237000000	          -0.2966003	           0.1903839	          -0.3651733	          -0.5706177	          -0.3699341	          -0.5820618	          -0.2940063	           0.2066345
3243500000	          -0.2945099	           0.1901855	          -0.3684082	          -0.5687866	          -0.3732605	          -0.5801086	          -0.2918549	           0.2062988
3250000000	          -0.2924194	           0.1899414	          -0.3716431	           -0.566925	          -0.3765564	          -0.5781555	          -0.2897339	           0.2059784
3256500000	           -0.290329	           0.1896973	          -0.3748169	          -0.5649414	          -0.3797913	          -0.5761414	          -0.2875824	           0.2056274
3263000000	           -0.288269	           0.1894073	          -0.3780212	          -0.5629883	          -0.3829956	          -0.5740967	          -0.2854614	           0.2052917
3269500000	          -0.2862396	           0.1891022	          -0.3811646	          -0.5610352	           -0.386261	          -0.5720825	           -0.283371	           0.2049561
3276000000	           -0.284256	           0.1887817	          -0.3843689	           -0.559021	          -0.3894653	          -0.5700378	          -0.2812805	           0.2046051
3282500000	          -0.2823029	           0.1884308	          -0.3874817	          -0.5570068	          -0.3926697	          -0.5679626	          -0.2792053	           0.2042542
3289000000	          -0.2803192	           0.1880646	          -0.3906555	          -0.5549316	           -0.395874	          -0.5658569	          -0.2771454	           0.2039185
3295500000	          -0.2784424	           0.1876678	          -0.3937683	          -0.5528564	          -0.3990784	          -0.5637512	          -0.2751007	           0.2035522
3302000000	          -0.2765656	           0.1872711	          -0.3968811	          -0.5507507	          -0.4022827	          -0.5616455	          -0.2730713	           0.2032013
3308500000	          -0.2747192	           0.1868591	          -0.3999939	          -0.5486145	          -0.4054565	          -0.5594788	          -0.2710571	           0.2028046
3315000000	          -0.2729034	           0.1864319	          -0.4030457	          -0.5464783	          -0.4086304	           -0.557312	           -0.269043	           0.2024384
