! 
! FILENAME FOAM_MUT_20mm_TG
# Hz S RI R 50
2600000000	          -0.5015259	           0.0780945	            0.027771	          -0.6405945	           0.0348816	          -0.6421204	             -0.5112	           0.0572205
2606500000	           -0.499649	           0.0809021	           0.0228577	          -0.6420593	           0.0303955	          -0.6439819	          -0.5092468	            0.059082
2613000000	          -0.4977264	           0.0838928	           0.0182495	          -0.6429749	           0.0256958	          -0.6454773	          -0.5071411	           0.0610962
2619500000	          -0.4958649	           0.0869751	           0.0132141	          -0.6443176	            0.020874	          -0.6472473	          -0.5054016	            0.063324
2626000000	          -0.4939575	           0.0901947	           0.0083923	          -0.6454163	           0.0160828	          -0.6488647	          -0.5036011	           0.0656738
2632500000	          -0.4919128	           0.0935059	           0.0033264	          -0.6463013	           0.0112305	          -0.6502075	           -0.501709	           0.0681152
2639000000	          -0.4896851	           0.0968018	          -0.0015564	          -0.6469116	           0.0062256	          -0.6512146	          -0.4998627	           0.0705719
2645500000	          -0.4875641	           0.1000671	          -0.0065308	          -0.6477661	           0.0011292	          -0.6523743	          -0.4980316	           0.0730286
2652000000	          -0.4854126	           0.1033325	          -0.0115356	          -0.6484375	          -0.0037842	          -0.6535339	          -0.4963226	           0.0755768
2658500000	          -0.4832001	           0.1065674	          -0.0165405	          -0.6490173	          -0.0088806	           -0.654541	          -0.4945831	           0.0781097
2665000000	          -0.4809113	           0.1098022	          -0.0213928	          -0.6495361	          -0.0137329	           -0.655304	          -0.4928131	           0.0805969
2671500000	          -0.4786072	            0.112915	          -0.0263062	          -0.6501465	          -0.0187988	          -0.6562805	          -0.4910431	           0.0830994
2678000000	          -0.4762573	           0.1160278	          -0.0310669	          -0.6506348	          -0.0235596	          -0.6571045	          -0.4893494	           0.0855865
2684500000	          -0.4738312	           0.1190186	          -0.0358276	           -0.651062	          -0.0284119	          -0.6578979	          -0.4876404	            0.088028
2691000000	          -0.4714661	           0.1220093	          -0.0405273	          -0.6515198	          -0.0332642	          -0.6585388	          -0.4859924	           0.0904694
2697500000	          -0.4690704	           0.1248474	           -0.045166	           -0.651947	          -0.0379944	          -0.6592712	          -0.4843597	           0.0928497
2704000000	          -0.4665527	           0.1275787	          -0.0496521	          -0.6524048	          -0.0426025	          -0.6598511	           -0.482666	           0.0951385
2710500000	          -0.4641113	           0.1302643	          -0.0541687	           -0.652832	          -0.0472107	           -0.660553	          -0.4811096	           0.0974884
2717000000	          -0.4616852	           0.1328888	          -0.0585938	          -0.6532593	          -0.0517883	          -0.6611938	          -0.4795227	            0.099762
2723500000	          -0.4591675	           0.1353455	          -0.0629883	          -0.6536255	          -0.0562134	          -0.6617432	          -0.4779053	            0.102005
2730000000	          -0.4567261	           0.1377869	          -0.0672302	          -0.6541443	          -0.0606384	          -0.6624756	          -0.4764404	           0.1042175
2736500000	          -0.4541931	           0.1401215	          -0.0715637	          -0.6545715	          -0.0650024	          -0.6631165	           -0.474884	           0.1063995
2743000000	          -0.4516754	           0.1423645	          -0.0757446	          -0.6549683	          -0.0693054	          -0.6636353	          -0.4733734	            0.108551
2749500000	           -0.449173	           0.1444092	           -0.079895	           -0.655426	          -0.0735779	          -0.6642456	          -0.4718475	           0.1106415
2756000000	          -0.4466553	           0.1464081	          -0.0839539	          -0.6558533	          -0.0776672	           -0.664856	          -0.4702911	           0.1127319
2762500000	          -0.4441223	           0.1483154	          -0.0879822	          -0.6562805	          -0.0818481	          -0.6654053	          -0.4687958	           0.1147614
2769000000	          -0.4416504	           0.1501923	          -0.0919495	          -0.6567383	           -0.085907	          -0.6659851	          -0.4673004	           0.1167908
2775500000	          -0.4391937	           0.1519012	          -0.0959167	          -0.6572571	          -0.0899353	          -0.6666565	          -0.4657898	           0.1188049
2782000000	          -0.4366608	           0.1535187	          -0.0997925	          -0.6576843	          -0.0939331	          -0.6672363	          -0.4642487	           0.1208038
2788500000	          -0.4342041	           0.1550598	          -0.1037292	          -0.6581726	          -0.0978699	          -0.6678467	          -0.4627228	           0.1227875
2795000000	          -0.4317474	           0.1565704	          -0.1075439	          -0.6585999	          -0.1018372	           -0.668335	          -0.4612274	           0.1247559
2801500000	          -0.4293518	           0.1579437	          -0.1113586	          -0.6591492	          -0.1057434	          -0.6690063	           -0.459671	           0.1266785
2808000000	          -0.4268799	           0.1592407	          -0.1151123	          -0.6596069	          -0.1095581	          -0.6695557	          -0.4580536	           0.1286011
2814500000	          -0.4244385	           0.1604462	           -0.118927	          -0.6600037	          -0.1134033	          -0.6700439	          -0.4564362	           0.1305237
2821000000	          -0.4220581	           0.1616516	          -0.1226807	          -0.6604614	          -0.1171875	          -0.6706238	          -0.4548187	            0.132431
2827500000	           -0.419693	           0.1627045	          -0.1264954	          -0.6608887	          -0.1210632	          -0.6711121	           -0.453125	           0.1343231
2834000000	          -0.4173126	           0.1637573	           -0.130188	          -0.6612854	          -0.1248474	          -0.6716614	          -0.4514313	              0.1362
2840500000	          -0.4149628	           0.1647339	          -0.1339722	          -0.6616821	          -0.1286621	          -0.6721497	          -0.4496613	           0.1380768
2847000000	          -0.4126282	           0.1656647	          -0.1377563	          -0.6619873	          -0.1324463	          -0.6725769	          -0.4478455	           0.1399536
2853500000	          -0.4103394	           0.1665344	            -0.14151	          -0.6624146	           -0.136322	          -0.6730347	          -0.4460144	           0.1418152
2860000000	            -0.40802	           0.1673584	          -0.1452942	          -0.6625977	          -0.1401062	          -0.6734009	          -0.4440613	           0.1436157
2866500000	          -0.4057617	           0.1681366	          -0.1491089	          -0.6628723	          -0.1439819	          -0.6737976	          -0.4421082	            0.145462
2873000000	          -0.4034729	           0.1689148	          -0.1528931	          -0.6630859	          -0.1478271	          -0.6740723	           -0.440094	           0.1472626
2879500000	          -0.4012604	            0.169632	          -0.1567078	          -0.6632996	          -0.1517029	          -0.6744385	          -0.4380341	           0.1490326
2886000000	          -0.3989868	           0.1703033	          -0.1604919	          -0.6633301	          -0.1555176	          -0.6746216	          -0.4358368	           0.1508179
2892500000	           -0.396759	           0.1709595	          -0.1643677	          -0.6634216	          -0.1594238	          -0.6748047	          -0.4336395	           0.1525421
2899000000	          -0.3945465	           0.1716156	          -0.1682129	          -0.6633301	          -0.1633301	          -0.6748352	          -0.4313202	           0.1542358
2905500000	          -0.3923492	           0.1722107	          -0.1720886	          -0.6632996	          -0.1672974	          -0.6749268	          -0.4290009	           0.1559143
2912000000	          -0.3901367	            0.172821	          -0.1759338	           -0.663208	          -0.1712036	          -0.6749878	            -0.42659	            0.157547
2918500000	            -0.38797	           0.1734009	          -0.1798096	          -0.6630249	          -0.1751709	          -0.6749268	          -0.4241333	           0.1591492
2925000000	          -0.3858185	           0.1739807	          -0.1837463	          -0.6627808	          -0.1791382	          -0.6748047	          -0.4216003	           0.1607208
2931500000	          -0.3836517	             0.17453	          -0.1876526	          -0.6624756	          -0.1831665	          -0.6746521	          -0.4190216	           0.1622467
2938000000	          -0.3814697	           0.1750793	          -0.1915588	          -0.6620789	          -0.1871643	          -0.6743469	          -0.4163971	           0.1637115
2944500000	          -0.3793182	           0.1756134	          -0.1954651	          -0.6616516	          -0.1912231	          -0.6740417	          -0.4137115	           0.1651306
2951000000	          -0.3771515	            0.176178	          -0.1993713	          -0.6611023	          -0.1952515	           -0.673645	          -0.4109497	           0.1665039
2957500000	          -0.3750305	            0.176712	          -0.2033081	          -0.6605225	          -0.1992798	          -0.6731873	          -0.4081726	           0.1678009
2964000000	          -0.3728943	           0.1772308	          -0.2072144	          -0.6599426	          -0.2033081	          -0.6727295	          -0.4053497	           0.1690521
2970500000	          -0.3707428	           0.1777649	          -0.2110901	          -0.6592102	          -0.2073669	          -0.6720886	          -0.4024811	           0.1702423
2977000000	          -0.3685913	           0.1782837	          -0.2149963	          -0.6584167	          -0.2114258	          -0.6714172	          -0.3995514	           0.1713715
2983500000	          -0.3664551	           0.1787872	          -0.2189026	          -0.6575928	          -0.2155151	          -0.6706848	           -0.396637	           0.1724243
2990000000	          -0.3643188	            0.179306	          -0.2228088	          -0.6567078	           -0.219574	          -0.6699829	          -0.3937073	           0.1734467
2996500000	          -0.3621674	           0.1798401	          -0.2266541	          -0.6557922	          -0.2236023	          -0.6690979	          -0.3907318	           0.1743774
3003000000	          -0.3600311	           0.1803589	          -0.2304993	          -0.6548157	          -0.2276611	          -0.6681824	          -0.3877563	           0.1752625
3009500000	          -0.3578644	           0.1808472	          -0.2343445	          -0.6537476	          -0.2316589	          -0.6672058	          -0.3847656	           0.1760559
3016000000	          -0.3556824	           0.1813354	          -0.2381287	          -0.6526794	          -0.2356873	          -0.6661987	          -0.3817291	           0.1767731
3022500000	          -0.3535309	           0.1818542	          -0.2419434	          -0.6515503	          -0.2396851	          -0.6651306	          -0.3787231	           0.1774445
3029000000	          -0.3513641	           0.1823425	           -0.245697	          -0.6503601	          -0.2436523	          -0.6639709	          -0.3757324	           0.1780548
3035500000	          -0.3491974	           0.1828308	          -0.2494507	          -0.6491699	          -0.2476501	          -0.6627808	           -0.372757	           0.1785889
3042000000	          -0.3470306	           0.1833191	          -0.2531433	          -0.6479187	          -0.2515869	          -0.6615601	          -0.3697815	           0.1790771
3048500000	          -0.3448334	           0.1838074	          -0.2568665	           -0.646637	          -0.2554932	          -0.6602783	           -0.366806	           0.1795044
3055000000	          -0.3426666	           0.1842957	          -0.2605591	          -0.6452942	          -0.2594299	          -0.6589966	          -0.3638916	           0.1799011
3061500000	          -0.3404999	           0.1847382	          -0.2642212	          -0.6440125	          -0.2633057	          -0.6576233	          -0.3609619	           0.1802063
3068000000	          -0.3382568	           0.1851807	          -0.2678223	          -0.6426086	          -0.2671509	          -0.6562805	          -0.3580475	           0.1804657
3074500000	          -0.3360596	           0.1856384	          -0.2714844	          -0.6412048	          -0.2709961	          -0.6548157	          -0.3551941	           0.1806946
3081000000	           -0.333847	           0.1860657	          -0.2750549	           -0.639801	          -0.2748413	          -0.6533508	           -0.352356	           0.1808777
3087500000	          -0.3316345	           0.1864777	           -0.278656	          -0.6383667	           -0.278656	           -0.651886	          -0.3495331	           0.1809998
3094000000	          -0.3294373	           0.1868896	           -0.282196	          -0.6369629	          -0.2824402	          -0.6503906	          -0.3467712	           0.1810913
3100500000	          -0.3272095	           0.1872711	          -0.2857361	           -0.635498	          -0.2861633	          -0.6488953	          -0.3440247	           0.1811371
3107000000	          -0.3249664	           0.1876373	          -0.2892761	          -0.6340027	           -0.289917	          -0.6473083	          -0.3413086	           0.1811676
3113500000	          -0.3227386	           0.1879883	          -0.2927856	          -0.6324768	          -0.2936096	           -0.645752	          -0.3386536	           0.1811523
3120000000	          -0.3204803	            0.188324	          -0.2962341	          -0.6309814	          -0.2973022	          -0.6441345	          -0.3360138	           0.1811218
3126500000	           -0.318222	           0.1886139	          -0.2997131	          -0.6294861	          -0.3009644	          -0.6425476	          -0.3333893	           0.1810608
3133000000	          -0.3159943	           0.1889038	          -0.3031616	          -0.6278992	          -0.3045959	          -0.6408997	          -0.3308411	           0.1809845
3139500000	          -0.3137512	           0.1891632	          -0.3066101	          -0.6263733	           -0.308197	          -0.6392212	          -0.3283081	           0.1808624
3146000000	          -0.3114624	           0.1893921	          -0.3100281	          -0.6247864	          -0.3117981	          -0.6375427	          -0.3257904	           0.1807251
3152500000	          -0.3092041	           0.1895905	           -0.313446	          -0.6231995	          -0.3153992	          -0.6358643	          -0.3233185	           0.1805878
3159000000	          -0.3069763	           0.1898041	           -0.316925	          -0.6216431	          -0.3189697	          -0.6341858	          -0.3209229	            0.180481
3165500000	           -0.304718	           0.1899567	           -0.320282	          -0.6199951	          -0.3225098	          -0.6324463	           -0.318512	           0.1802979
3172000000	          -0.3024597	            0.190094	             -0.3237	          -0.6183777	          -0.3260193	          -0.6307373	          -0.3161316	           0.1801453
3178500000	          -0.3002319	           0.1902008	          -0.3270874	          -0.6167908	          -0.3295898	          -0.6289978	          -0.3138275	           0.1799622
3185000000	          -0.2979736	           0.1902771	          -0.3304443	          -0.6150818	          -0.3330688	          -0.6271973	          -0.3114929	           0.1797791
3191500000	          -0.2957611	           0.1903229	          -0.3338318	          -0.6134338	          -0.3365784	          -0.6254883	          -0.3092194	           0.1795959
3198000000	          -0.2935181	           0.1903381	          -0.3371887	          -0.6117249	          -0.3400574	          -0.6236572	          -0.3069611	           0.1794281
3204500000	          -0.2913055	           0.1903076	          -0.3405457	          -0.6100159	          -0.3435059	          -0.6218567	          -0.3047333	           0.1792145
3211000000	          -0.2891235	           0.1902771	          -0.3439026	          -0.6082764	          -0.3470154	          -0.6200562	          -0.3025208	           0.1790619
3217500000	          -0.2869263	           0.1902008	          -0.3472595	          -0.6065063	          -0.3504333	          -0.6181946	          -0.3003387	           0.1788635
3224000000	          -0.2847443	           0.1900787	          -0.3505859	          -0.6047668	          -0.3538818	          -0.6163635	          -0.2981415	           0.1786499
3230500000	           -0.282608	           0.1899567	          -0.3539124	          -0.6029968	          -0.3573303	          -0.6145325	          -0.2960205	           0.1784821
3237000000	          -0.2804565	           0.1898041	          -0.3572388	          -0.6011658	          -0.3607483	          -0.6126099	          -0.2938843	            0.178299
3243500000	          -0.2783356	            0.189621	          -0.3605347	          -0.5992737	          -0.3641357	          -0.6106567	           -0.291748	           0.1781006
3250000000	          -0.2762299	           0.1894073	          -0.3638306	          -0.5974426	          -0.3675537	          -0.6087952	          -0.2896729	           0.1779175
3256500000	          -0.2741547	           0.1891479	          -0.3670959	            -0.59552	          -0.3709412	          -0.6068115	          -0.2875519	           0.1777039
3263000000	          -0.2720947	           0.1888885	          -0.3704224	          -0.5936584	          -0.3743286	          -0.6048584	          -0.2855072	            0.177536
3269500000	            -0.27005	           0.1885834	          -0.3736572	          -0.5916748	          -0.3776855	          -0.6028137	          -0.2834167	           0.1773224
3276000000	          -0.2680664	           0.1882782	          -0.3769226	          -0.5897522	           -0.381073	          -0.6008911	          -0.2813873	           0.1771393
3282500000	          -0.2660828	           0.1879272	           -0.380127	           -0.587738	          -0.3844604	          -0.5988159	          -0.2793274	           0.1769257
3289000000	          -0.2641144	           0.1875763	          -0.3833313	          -0.5856628	          -0.3877258	          -0.5967407	          -0.2772675	            0.176712
3295500000	          -0.2622375	           0.1871948	          -0.3865967	          -0.5837097	          -0.3911133	          -0.5947266	          -0.2752838	           0.1765289
3302000000	          -0.2602997	           0.1867981	            -0.38974	           -0.581604	          -0.3944092	          -0.5925903	          -0.2732544	              0.1763
3308500000	          -0.2584839	           0.1864014	          -0.3929138	          -0.5795898	          -0.3977356	          -0.5905151	          -0.2712708	           0.1760712
3315000000	          -0.2566528	           0.1859741	          -0.3960876	          -0.5774231	           -0.401001	          -0.5883179	          -0.2692566	           0.1758575
