! 
! FILENAME FOAM_MUT_20mm_NTG
# Hz S RI R 50
2600000000	          -0.5109558	           0.1060181	           0.0048218	          -0.6411133	           0.0076904	          -0.6430969	          -0.5260925	           0.0776062
2606500000	          -0.5082397	            0.110321	           0.0012207	          -0.6429443	           0.0030518	          -0.6455383	          -0.5232544	           0.0817871
2613000000	          -0.5057678	           0.1123352	          -0.0032043	          -0.6457214	           -0.001709	          -0.6471252	          -0.5204468	           0.0836487
2619500000	          -0.5023193	           0.1163025	          -0.0075073	          -0.6464233	          -0.0054016	          -0.6471863	          -0.5167542	           0.0881653
2626000000	          -0.4992065	           0.1178589	          -0.0116882	           -0.647583	           -0.007782	          -0.6474609	          -0.5132141	           0.0897827
2632500000	          -0.4948883	           0.1205902	          -0.0154114	          -0.6483459	          -0.0093689	          -0.6490479	          -0.5093384	            0.092926
2639000000	          -0.4908447	           0.1203461	          -0.0192261	          -0.6505127	           -0.012207	          -0.6525269	           -0.506073	           0.0932617
2645500000	          -0.4868164	           0.1223755	          -0.0234375	          -0.6520081	          -0.0169067	          -0.6553345	          -0.5027161	           0.0953369
2652000000	          -0.4838104	           0.1209869	          -0.0291138	          -0.6539001	          -0.0233765	          -0.6577759	          -0.5002441	           0.0939331
2658500000	          -0.4812317	           0.1223145	          -0.0350037	          -0.6539612	          -0.0292358	          -0.6573792	          -0.4980774	           0.0951691
2665000000	          -0.4799347	           0.1215363	          -0.0404663	          -0.6533508	          -0.0341187	          -0.6556091	          -0.4964752	           0.0935364
2671500000	           -0.478363	            0.123642	          -0.0440369	          -0.6515808	          -0.0370178	          -0.6547852	          -0.4945374	           0.0947876
2678000000	          -0.4777527	           0.1234283	          -0.0468445	          -0.6513367	          -0.0387878	          -0.6553955	          -0.4940338	           0.0942078
2684500000	          -0.4767761	           0.1263733	          -0.0492249	           -0.651825	           -0.041687	          -0.6571655	           -0.492981	           0.0971832
2691000000	          -0.4757385	           0.1275024	          -0.0528259	          -0.6533813	          -0.0460205	          -0.6589355	          -0.4925537	           0.0988007
2697500000	          -0.4739075	           0.1307831	          -0.0570374	          -0.6537781	           -0.050293	          -0.6595764	          -0.4910431	           0.1032867
2704000000	          -0.4718628	           0.1329651	          -0.0617676	           -0.653656	          -0.0538635	          -0.6590271	            -0.48909	           0.1059265
2710500000	          -0.4687805	           0.1371307	          -0.0644836	          -0.6528931	          -0.0560303	          -0.6589355	          -0.4862823	           0.1097412
2717000000	          -0.4650879	           0.1387177	          -0.0670776	          -0.6529846	          -0.0575562	          -0.6601563	          -0.4835815	           0.1109772
2723500000	          -0.4612885	           0.1421509	          -0.0691223	          -0.6541443	          -0.0600281	          -0.6625671	          -0.4803619	           0.1137695
2730000000	          -0.4573517	           0.1431885	          -0.0728455	          -0.6559143	          -0.0641479	          -0.6653137	          -0.4771729	           0.1140289
2736500000	          -0.4534302	           0.1452179	          -0.0768738	          -0.6576233	           -0.069458	          -0.6670532	          -0.4735107	           0.1157227
2743000000	          -0.4503021	           0.1448517	          -0.0822144	          -0.6580505	          -0.0751343	          -0.6673889	          -0.4702301	           0.1147919
2749500000	           -0.447052	           0.1459198	          -0.0860596	          -0.6576233	          -0.0787964	           -0.666748	          -0.4671631	           0.1155548
2756000000	          -0.4449158	            0.144577	          -0.0895996	          -0.6568298	          -0.0813599	          -0.6663818	          -0.4656067	           0.1137848
2762500000	          -0.4430389	           0.1455383	          -0.0919189	           -0.657196	          -0.0841064	          -0.6675415	          -0.4647369	           0.1149292
2769000000	          -0.4413757	           0.1446838	          -0.0953064	          -0.6581726	          -0.0878296	          -0.6691284	           -0.464859	           0.1143646
2775500000	          -0.4399872	           0.1465607	          -0.0994873	          -0.6593323	          -0.0923462	          -0.6706543	          -0.4647522	           0.1162872
2782000000	          -0.4391937	           0.1468506	          -0.1042175	          -0.6583557	          -0.0970764	          -0.6703796	           -0.465271	           0.1165619
2788500000	          -0.4379883	           0.1498566	          -0.1070862	           -0.657135	          -0.1008606	          -0.6698608	          -0.4648285	           0.1193085
2795000000	          -0.4370575	           0.1516724	          -0.1090393	          -0.6559753	          -0.1037598	          -0.6695862	           -0.464447	           0.1206207
2801500000	          -0.4351501	            0.155777	          -0.1104431	          -0.6570435	          -0.1065674	          -0.6699524	          -0.4629669	           0.1241913
2808000000	          -0.4327087	           0.1580048	          -0.1128235	          -0.6587219	          -0.1104736	          -0.6705627	          -0.4611664	           0.1264496
2814500000	          -0.4295197	           0.1617279	          -0.1163635	           -0.660675	          -0.1142578	          -0.6705933	          -0.4581451	            0.130661
2821000000	          -0.4260101	           0.1628113	          -0.1209106	          -0.6610107	          -0.1176147	          -0.6698303	          -0.4549561	           0.1327515
2827500000	          -0.4220734	           0.1653595	          -0.1246948	          -0.6611938	          -0.1195068	          -0.6691895	          -0.4514313	           0.1360626
2834000000	          -0.4184113	           0.1656036	          -0.1278076	          -0.6607666	          -0.1207886	           -0.670105	          -0.4480438	           0.1366882
2840500000	          -0.4142303	           0.1675873	          -0.1302795	           -0.661438	          -0.1230164	          -0.6727905	          -0.4450684	           0.1385956
2847000000	          -0.4096832	            0.167099	          -0.1329346	          -0.6624146	          -0.1265869	          -0.6761475	          -0.4428406	           0.1380005
2853500000	          -0.4057922	           0.1677551	          -0.1360779	          -0.6642151	          -0.1318665	          -0.6782532	          -0.4408569	           0.1385651
2860000000	          -0.4030304	           0.1654205	          -0.1404419	          -0.6658325	          -0.1382446	          -0.6786499	          -0.4394989	           0.1366425
2866500000	          -0.4010773	           0.1651001	          -0.1454468	          -0.6673279	          -0.1431274	           -0.677948	          -0.4387512	           0.1371155
2873000000	           -0.401001	           0.1635132	          -0.1505432	           -0.667572	           -0.146759	          -0.6772156	          -0.4391785	           0.1360779
2879500000	          -0.4008179	            0.164444	          -0.1553345	           -0.667572	          -0.1504517	          -0.6784668	          -0.4394684	           0.1381378
2886000000	          -0.4016113	           0.1644897	            -0.15979	          -0.6669006	          -0.1563721	          -0.6800537	          -0.4404907	           0.1398926
2892500000	          -0.4012451	            0.166626	          -0.1643372	          -0.6669922	          -0.1633606	          -0.6797791	          -0.4405823	           0.1442719
2899000000	          -0.4010315	           0.1679688	          -0.1690979	          -0.6661682	          -0.1699524	          -0.6759949	           -0.440094	           0.1482086
2905500000	          -0.3996735	           0.1713257	          -0.1731873	          -0.6652527	          -0.1725769	          -0.6718445	          -0.4384308	           0.1534119
2912000000	          -0.3976746	            0.173996	          -0.1766357	          -0.6645203	          -0.1719971	          -0.6697998	          -0.4361115	           0.1564484
2918500000	           -0.394104	           0.1776733	          -0.1800537	          -0.6644897	          -0.1719666	          -0.6717529	          -0.4328613	           0.1608734
2925000000	          -0.3891602	           0.1804047	          -0.1838684	           -0.664093	           -0.175293	           -0.675415	          -0.4281921	           0.1655121
2931500000	          -0.3844147	            0.183197	          -0.1882629	          -0.6639099	          -0.1808472	          -0.6773071	          -0.4224701	           0.1695099
2938000000	          -0.3804626	           0.1825409	           -0.192749	          -0.6629333	          -0.1882324	          -0.6767578	          -0.4169464	           0.1702423
2944500000	          -0.3769226	           0.1829681	          -0.1965637	          -0.6620178	          -0.1936951	          -0.6747131	          -0.4117737	           0.1717987
2951000000	          -0.3733521	           0.1811676	          -0.2001648	          -0.6608276	          -0.1967773	          -0.6716003	          -0.4072418	           0.1707916
2957500000	          -0.3697052	           0.1804962	          -0.2034302	          -0.6602783	          -0.1981506	           -0.671051	          -0.4036865	           0.1712646
2964000000	          -0.3669281	           0.1779327	          -0.2070618	          -0.6601868	          -0.2007141	          -0.6722717	          -0.4013977	           0.1702576
2970500000	          -0.3643951	           0.1769409	          -0.2108765	          -0.6604309	          -0.2051086	          -0.6744385	           -0.399353	           0.1711426
2977000000	          -0.3635559	           0.1740723	          -0.2156982	          -0.6604614	          -0.2114868	          -0.6751404	          -0.3980865	           0.1707458
2983500000	           -0.363266	           0.1743469	          -0.2205811	           -0.659668	          -0.2174988	          -0.6738281	          -0.3968048	           0.1721649
2990000000	          -0.3640137	           0.1737823	          -0.2254944	          -0.6582947	          -0.2223206	          -0.6709595	          -0.3956299	           0.1720886
2996500000	          -0.3637848	           0.1757355	          -0.2293701	          -0.6563721	          -0.2251282	          -0.6692505	          -0.3937073	           0.1741028
3003000000	          -0.3636932	           0.1768341	          -0.2329712	          -0.6548767	           -0.228363	          -0.6685791	          -0.3916168	           0.1748047
3009500000	          -0.3625031	           0.1792908	          -0.2365417	          -0.6539612	           -0.232605	          -0.6687927	          -0.3886261	           0.1774445
3016000000	          -0.3615112	           0.1809387	          -0.2407837	           -0.652771	          -0.2381592	          -0.6675415	          -0.3851776	           0.1791077
3022500000	          -0.3593445	           0.1837311	          -0.2445068	          -0.6507568	          -0.2424316	          -0.6657104	          -0.3811035	            0.181839
3029000000	           -0.356308	           0.1852112	          -0.2480164	          -0.6485596	           -0.245697	          -0.6627808	          -0.3766174	           0.1830139
3035500000	          -0.3523865	           0.1875916	          -0.2503052	          -0.6472778	          -0.2480469	           -0.662323	          -0.3722839	           0.1849823
3042000000	          -0.3480835	           0.1880035	          -0.2532959	          -0.6463623	          -0.2514954	           -0.662384	          -0.3681946	           0.1850891
3048500000	          -0.3436432	            0.188797	          -0.2565002	          -0.6459351	           -0.256012	          -0.6628418	          -0.3643646	           0.1861725
3055000000	          -0.3398438	           0.1877441	          -0.2607422	          -0.6453247	          -0.2617493	          -0.6614075	          -0.3600311	            0.184906
3061500000	          -0.3366547	            0.187851	          -0.2645569	          -0.6443481	          -0.2665405	          -0.6591797	          -0.3560333	           0.1846771
3068000000	          -0.3341217	           0.1864166	          -0.2688599	          -0.6428528	          -0.2711792	          -0.6556702	          -0.3522339	           0.1822052
3074500000	          -0.3315582	           0.1865997	          -0.2724304	          -0.6413574	          -0.2738953	          -0.6531372	          -0.3487549	           0.1811218
3081000000	          -0.3295135	           0.1845551	          -0.2761841	          -0.6394043	          -0.2763977	          -0.6512146	          -0.3460236	           0.1783142
3087500000	          -0.3277588	           0.1841278	          -0.2790527	          -0.6377869	          -0.2792664	          -0.6504517	          -0.3441772	            0.177536
3094000000	          -0.3269196	           0.1824036	          -0.2826538	          -0.6365662	          -0.2830505	          -0.6492615	          -0.3430481	           0.1756592
3100500000	          -0.3260193	           0.1822052	          -0.2861633	          -0.6357117	          -0.2870789	          -0.6477356	          -0.3418427	           0.1758423
3107000000	          -0.3257446	           0.1814423	          -0.2910156	          -0.6340942	          -0.2903748	          -0.6452637	          -0.3414917	           0.1750488
3113500000	          -0.3252411	           0.1828918	          -0.2943726	          -0.6317139	          -0.2922974	          -0.6438904	          -0.3408966	           0.1758728
3120000000	          -0.3250122	           0.1837311	          -0.2975159	          -0.6282349	          -0.2946472	          -0.6433411	          -0.3407135	           0.1756897
3126500000	           -0.323822	           0.1864471	          -0.2991638	          -0.6267395	          -0.2979736	          -0.6438599	          -0.3395386	           0.1774139
3133000000	          -0.3222656	           0.1881866	          -0.3014526	          -0.6259766	           -0.303833	          -0.6433716	          -0.3378296	           0.1782227
3139500000	           -0.319519	           0.1906281	          -0.3044128	          -0.6256714	          -0.3092346	          -0.6414185	          -0.3349304	           0.1800232
3146000000	          -0.3167267	           0.1919403	          -0.3088379	          -0.6249084	          -0.3143311	           -0.637085	          -0.3312836	           0.1807709
3152500000	          -0.3131104	           0.1940765	             -0.3125	          -0.6235352	          -0.3167419	          -0.6338806	          -0.3273621	           0.1823578
3159000000	          -0.3091431	           0.1943512	          -0.3164368	          -0.6216125	          -0.3186035	          -0.6316223	          -0.3232727	           0.1825714
3165500000	          -0.3049164	           0.1952362	          -0.3192749	          -0.6206665	          -0.3208008	          -0.6313477	          -0.3188782	           0.1840057
3172000000	          -0.3006439	            0.194397	          -0.3231812	          -0.6195679	          -0.3247986	          -0.6313171	           -0.315094	           0.1838837
3178500000	          -0.2966309	           0.1940613	          -0.3266296	          -0.6182861	          -0.3291626	          -0.6306152	          -0.3115997	            0.184082
3185000000	          -0.2935333	           0.1921844	          -0.3309021	          -0.6163635	           -0.334198	          -0.6281128	          -0.3084717	           0.1822815
3191500000	          -0.2909241	             0.19133	          -0.3345032	           -0.614502	          -0.3375549	          -0.6257019	          -0.3057251	            0.181366
3198000000	          -0.2888184	           0.1890106	          -0.3386841	          -0.6118774	          -0.3406067	           -0.622345	          -0.3036804	           0.1782837
3204500000	           -0.287384	           0.1885223	          -0.3416748	          -0.6097412	          -0.3430786	          -0.6208801	          -0.3019409	            0.177124
3211000000	          -0.2861938	           0.1869354	           -0.344574	          -0.6068115	          -0.3463745	          -0.6196289	           -0.300827	           0.1749268
3217500000	          -0.2847595	           0.1865845	          -0.3471375	           -0.605072	           -0.349823	           -0.618927	          -0.2991791	           0.1748657
3224000000	          -0.2841644	           0.1855774	          -0.3501587	          -0.6036072	          -0.3549194	          -0.6169739	          -0.2978668	           0.1741943
3230500000	          -0.2833252	           0.1861572	           -0.353302	          -0.6027832	          -0.3588867	           -0.614563	           -0.296463	           0.1749268
3237000000	          -0.2824554	           0.1863098	          -0.3571777	          -0.6008911	          -0.3621216	          -0.6112671	          -0.2954102	            0.174942
3243500000	          -0.2809753	           0.1880798	          -0.3601379	          -0.5991821	          -0.3639526	          -0.6092834	          -0.2943115	           0.1762543
3250000000	          -0.2791443	           0.1889191	          -0.3630066	          -0.5966797	          -0.3663635	          -0.6082764	          -0.2934723	           0.1770935
3256500000	          -0.2767487	           0.1907654	          -0.3655396	          -0.5955505	          -0.3693848	          -0.6079407	          -0.2917023	           0.1789703
3263000000	          -0.2743378	           0.1914063	           -0.368866	           -0.594574	          -0.3738708	          -0.6064758	          -0.2891541	           0.1795502
3269500000	          -0.2716675	           0.1923523	          -0.3722534	          -0.5935974	          -0.3780212	          -0.6046143	          -0.2859192	            0.180954
3276000000	          -0.2694092	           0.1922913	          -0.3764343	          -0.5920105	          -0.3820801	          -0.6017761	          -0.2823944	           0.1808472
3282500000	          -0.2667084	           0.1930084	           -0.380188	          -0.5904236	          -0.3851013	          -0.5996704	          -0.2788239	           0.1812744
3289000000	          -0.2637024	           0.1918945	          -0.3843689	          -0.5881348	          -0.3884277	          -0.5975342	          -0.2753601	           0.1802826
3295500000	          -0.2605286	           0.1915588	          -0.3880005	          -0.5858459	          -0.3919983	          -0.5961609	          -0.2718201	           0.1803436
3302000000	          -0.2576752	             0.18927	          -0.3916931	          -0.5831299	          -0.3961792	           -0.593811	           -0.269043	           0.1789703
3308500000	           -0.255127	           0.1880646	          -0.3946533	           -0.580719	          -0.3996277	          -0.5914612	           -0.266571	           0.1784363
3315000000	          -0.2535095	           0.1858521	          -0.3979797	          -0.5777893	          -0.4030151	          -0.5883484	          -0.2648468	           0.1762085
