! 
! FILENAME MUT_20mm_NTG
# Hz S RI R 50
2600000000	          -0.7586975	          -0.1200867	          -0.1212921	           0.2331619	          -0.1231461	           0.2326279	          -0.7867126	          -0.1444397
2606500000	          -0.7597351	          -0.1155396	          -0.1197281	           0.2345428	           -0.121582	           0.2343521	          -0.7876282	          -0.1404724
2613000000	          -0.7605286	          -0.1150818	          -0.1183395	           0.2363205	          -0.1195602	           0.2357559	          -0.7877808	          -0.1412964
2619500000	          -0.7607422	          -0.1109314	          -0.1162338	           0.2377014	          -0.1175461	           0.2365417	          -0.7883301	          -0.1374817
2626000000	           -0.761261	          -0.1107483	          -0.1141891	           0.2389603	          -0.1159821	           0.2367554	          -0.7881775	          -0.1382446
2632500000	          -0.7611389	          -0.1068115	          -0.1123428	           0.2397995	          -0.1153717	           0.2373962	          -0.7883606	          -0.1349182
2639000000	          -0.7602844	          -0.1073914	          -0.1108932	           0.2412033	          -0.1146927	           0.2389603	          -0.7879028	          -0.1360474
2645500000	          -0.7603149	          -0.1036377	          -0.1091995	           0.2428436	          -0.1131592	           0.2412567	          -0.7879333	          -0.1330566
2652000000	          -0.7597656	          -0.1046448	           -0.106987	           0.2450333	          -0.1106949	           0.2434998	          -0.7873535	          -0.1347961
2658500000	          -0.7596741	           -0.101593	          -0.1040726	           0.2467117	          -0.1077576	           0.2447891	          -0.7879944	          -0.1325073
2665000000	          -0.7603149	          -0.1027222	          -0.1006317	           0.2479706	          -0.1045303	           0.2452621	          -0.7880249	          -0.1346741
2671500000	          -0.7613831	          -0.0993958	          -0.0977249	           0.2478333	          -0.1023407	           0.2453232	          -0.7889709	          -0.1320496
2678000000	          -0.7619934	          -0.1001892	          -0.0955963	           0.2475662	          -0.1009216	           0.2455139	          -0.7898254	           -0.133667
2684500000	          -0.7635193	          -0.0966797	          -0.0943604	            0.247818	          -0.0997314	           0.2463303	          -0.7910461	          -0.1305542
2691000000	          -0.7640686	          -0.0965271	          -0.0929871	           0.2490997	          -0.0980453	           0.2475815	          -0.7920532	          -0.1313782
2697500000	          -0.7651062	          -0.0925598	          -0.0910034	           0.2502899	          -0.0961456	           0.2485962	          -0.7932129	          -0.1277161
2704000000	          -0.7653503	          -0.0917969	          -0.0882568	           0.2514191	          -0.0942078	           0.2488556	          -0.7934265	          -0.1282959
2710500000	          -0.7657471	          -0.0872803	          -0.0859375	           0.2515106	          -0.0927658	           0.2489166	          -0.7938538	           -0.125061
2717000000	          -0.7644958	          -0.0873718	          -0.0839539	           0.2513428	          -0.0921478	           0.2492142	          -0.7931519	           -0.125824
2723500000	          -0.7645264	          -0.0834961	          -0.0832672	           0.2515411	          -0.0914154	           0.2504272	          -0.7936096	          -0.1228943
2730000000	          -0.7638245	           -0.083252	          -0.0821228	           0.2527618	           -0.090332	           0.2522888	          -0.7931213	          -0.1243286
2736500000	          -0.7637634	          -0.0799561	           -0.080719	           0.2543182	          -0.0885162	           0.2542114	          -0.7934265	          -0.1223145
2743000000	          -0.7633057	          -0.0805969	          -0.0781708	           0.2559052	          -0.0860748	           0.2554474	          -0.7931824	          -0.1247253
2749500000	          -0.7637634	          -0.0777893	          -0.0757141	           0.2565155	          -0.0840454	            0.256073	          -0.7939148	            -0.12323
2756000000	          -0.7634277	          -0.0789185	          -0.0733795	           0.2563934	          -0.0823364	           0.2562408	           -0.794342	           -0.125885
2762500000	          -0.7645264	           -0.076416	          -0.0722198	            0.256424	          -0.0810699	           0.2572327	          -0.7962952	          -0.1242065
2769000000	          -0.7647095	          -0.0771179	          -0.0708008	           0.2573547	          -0.0795135	           0.2584229	          -0.7979736	          -0.1262512
2775500000	          -0.7663574	          -0.0737305	          -0.0690918	           0.2587891	          -0.0776367	           0.2598877	          -0.8002014	           -0.124115
2782000000	          -0.7668152	          -0.0734558	          -0.0661774	           0.2595367	           -0.075119	           0.2607269	          -0.8017883	          -0.1254578
2788500000	          -0.7677002	          -0.0695496	           -0.063858	           0.2594452	          -0.0730743	           0.2612457	          -0.8038635	          -0.1222839
2795000000	            -0.76828	          -0.0684204	          -0.0619965	           0.2585602	          -0.0713654	            0.261322	          -0.8049011	          -0.1226501
2801500000	          -0.7687988	          -0.0639038	           -0.061615	           0.2583771	          -0.0699463	            0.261734	          -0.8058472	          -0.1192932
2808000000	          -0.7678833	          -0.0625916	          -0.0611115	           0.2588654	          -0.0682526	           0.2623596	          -0.8057251	          -0.1194763
2814500000	          -0.7676697	          -0.0579834	           -0.060257	           0.2602692	          -0.0666351	             0.26297	           -0.806366	          -0.1158142
2821000000	           -0.765686	          -0.0573425	          -0.0582733	           0.2613678	          -0.0648041	           0.2630463	           -0.805481	          -0.1159973
2827500000	          -0.7644958	          -0.0535278	          -0.0563965	           0.2623291	          -0.0637817	             0.26297	          -0.8055725	          -0.1131897
2834000000	          -0.7625122	           -0.053833	          -0.0544281	           0.2622681	          -0.0632172	           0.2631836	          -0.8045654	          -0.1140747
2840500000	             -0.7612	          -0.0509338	          -0.0534973	           0.2624817	          -0.0628357	           0.2646027	          -0.8045959	            -0.11203
2847000000	          -0.7591248	          -0.0518494	          -0.0529327	           0.2630768	          -0.0619354	           0.2666016	          -0.8044128	           -0.114502
2853500000	          -0.7584839	          -0.0498352	          -0.0523834	            0.264801	          -0.0601959	            0.268692	          -0.8058472	          -0.1136475
2860000000	          -0.7576294	          -0.0515747	          -0.0510101	           0.2667236	          -0.0577087	            0.270401	          -0.8075867	          -0.1166382
2866500000	          -0.7583008	          -0.0500793	          -0.0490112	           0.2689362	          -0.0553589	           0.2714081	          -0.8109131	          -0.1153564
2873000000	          -0.7592163	          -0.0516663	          -0.0463715	           0.2704468	          -0.0533142	           0.2720642	          -0.8143616	          -0.1170654
2879500000	           -0.761322	          -0.0489197	          -0.0439453	            0.271698	          -0.0517731	            0.273407	          -0.8182068	           -0.114502
2886000000	          -0.7634888	          -0.0487061	          -0.0414581	           0.2724152	          -0.0494537	           0.2752991	          -0.8222961	          -0.1137695
2892500000	          -0.7653198	          -0.0448303	          -0.0390778	           0.2733307	          -0.0464935	           0.2769012	          -0.8266907	          -0.1090698
2899000000	          -0.7660217	          -0.0432434	          -0.0363922	           0.2741241	           -0.042511	           0.2771301	          -0.8295288	          -0.1060181
2905500000	          -0.7668762	          -0.0383606	          -0.0340118	           0.2747345	          -0.0399475	           0.2761536	          -0.8323975	          -0.0995789
2912000000	          -0.7662354	          -0.0360413	          -0.0319214	           0.2748718	           -0.039032	           0.2750549	          -0.8331299	          -0.0957642
2918500000	          -0.7650757	          -0.0310364	          -0.0301971	           0.2754669	           -0.039093	           0.2757874	           -0.833252	           -0.088562
2925000000	          -0.7619629	          -0.0279236	          -0.0284729	           0.2760925	           -0.038269	            0.277832	          -0.8314209	          -0.0823669
2931500000	          -0.7595825	          -0.0228271	          -0.0262909	           0.2771759	          -0.0361328	           0.2799835	          -0.8288879	          -0.0758972
2938000000	           -0.756134	          -0.0222778	          -0.0238342	            0.278183	          -0.0327911	           0.2814941	          -0.8260498	          -0.0738525
2944500000	          -0.7539673	          -0.0199585	           -0.021286	           0.2789459	          -0.0299072	            0.282074	          -0.8244629	          -0.0695801
2951000000	          -0.7507019	          -0.0213623	          -0.0186768	           0.2792511	          -0.0273132	           0.2818298	          -0.8220825	          -0.0686035
2957500000	          -0.7487183	          -0.0202332	           -0.016571	           0.2795563	          -0.0261841	           0.2821655	           -0.821167	          -0.0653381
2964000000	          -0.7468262	          -0.0220947	          -0.0147095	           0.2802582	          -0.0246887	           0.2832336	           -0.819458	          -0.0652771
2970500000	          -0.7460632	          -0.0211182	          -0.0127869	            0.281311	          -0.0228882	            0.285202	          -0.8193359	          -0.0621338
2977000000	          -0.7449646	          -0.0233459	          -0.0101776	           0.2826843	          -0.0197906	           0.2869568	          -0.8184814	          -0.0617065
2983500000	          -0.7457581	          -0.0218201	          -0.0073242	           0.2837372	          -0.0166321	           0.2879028	          -0.8187561	          -0.0581055
2990000000	          -0.7465515	          -0.0227661	          -0.0040283	           0.2843018	          -0.0132294	           0.2880402	           -0.818573	          -0.0567627
2996500000	          -0.7475281	            -0.02005	          -0.0012054	            0.284256	          -0.0109863	           0.2881165	          -0.8186951	          -0.0523682
3003000000	          -0.7484741	          -0.0191345	           0.0014038	           0.2842102	          -0.0087891	           0.2885437	          -0.8171692	          -0.0499878
3009500000	          -0.7488403	          -0.0151062	           0.0036163	           0.2846069	          -0.0064697	           0.2896118	          -0.8162842	          -0.0445251
3016000000	          -0.7484741	          -0.0133972	           0.0065002	           0.2850647	          -0.0033569	           0.2902985	          -0.8140259	           -0.041748
3022500000	          -0.7484131	          -0.0084534	           0.0093536	           0.2851715	          -0.0004883	           0.2906494	          -0.8121338	          -0.0364685
3029000000	          -0.7462463	          -0.0066833	           0.0124207	           0.2849426	           0.0023956	           0.2903748	          -0.8082886	          -0.0335999
3035500000	          -0.7447815	          -0.0021057	           0.0144653	           0.2845306	           0.0041962	           0.2907104	          -0.8055115	          -0.0287476
3042000000	          -0.7411194	          -0.0006104	            0.016449	           0.2845001	            0.006546	           0.2913361	          -0.8007507	          -0.0270386
3048500000	          -0.7380676	           0.0029602	            0.018158	           0.2849426	           0.0089264	             0.29245	          -0.7973328	          -0.0233154
3055000000	          -0.7341003	           0.0032654	            0.020813	           0.2859039	           0.0123749	           0.2930298	          -0.7921143	          -0.0227661
3061500000	          -0.7312622	           0.0058289	           0.0235901	           0.2864685	           0.0155182	            0.293335	          -0.7885742	          -0.0201111
3068000000	          -0.7279053	           0.0047913	           0.0271301	           0.2866974	           0.0191193	           0.2929382	          -0.7839661	          -0.0207214
3074500000	          -0.7262573	           0.0066833	           0.0300598	           0.2864532	           0.0217285	           0.2924805	          -0.7808838	          -0.0189209
3081000000	          -0.7237549	           0.0053406	            0.032959	           0.2857666	           0.0242615	           0.2920837	          -0.7767639	          -0.0202637
3087500000	          -0.7224121	           0.0065002	           0.0349274	            0.285141	           0.0263672	           0.2922516	          -0.7748413	          -0.0192871
3094000000	          -0.7213745	           0.0052795	           0.0372925	           0.2852783	            0.029129	           0.2923737	          -0.7722168	          -0.0213928
3100500000	          -0.7209473	           0.0066833	           0.0395508	           0.2858734	           0.0317688	           0.2924194	          -0.7711487	          -0.0200806
3107000000	          -0.7201233	           0.0054932	           0.0432281	            0.286087	           0.0347137	           0.2919769	          -0.7698364	          -0.0212402
3113500000	          -0.7207031	           0.0076904	           0.0462646	            0.285553	           0.0367279	           0.2917175	          -0.7694702	          -0.0193481
3120000000	           -0.720459	            0.007782	             0.04953	            0.283905	           0.0386963	           0.2917023	          -0.7684326	          -0.0195313
3126500000	          -0.7207031	              0.0112	           0.0507813	           0.2827301	           0.0406036	             0.29245	           -0.768158	           -0.016571
3133000000	          -0.7203064	           0.0129395	           0.0521393	           0.2826843	            0.043869	            0.293396	          -0.7663879	           -0.015686
3139500000	          -0.7192688	           0.0171814	            0.053833	           0.2834015	           0.0471954	           0.2937927	          -0.7648621	          -0.0119934
3146000000	          -0.7174683	           0.0196533	           0.0569611	           0.2842407	           0.0513916	           0.2933044	           -0.762146	          -0.0099792
3152500000	          -0.7159424	           0.0241699	           0.0597687	            0.284256	           0.0541382	           0.2924957	          -0.7599487	          -0.0057068
3159000000	          -0.7123718	            0.026062	           0.0629883	           0.2835236	           0.0566101	            0.291687	          -0.7559204	          -0.0039673
3165500000	          -0.7095337	           0.0299377	           0.0649109	           0.2834015	           0.0584564	           0.2920074	          -0.7528381	           0.0003357
3172000000	          -0.7053833	           0.0308533	           0.0673676	           0.2833252	            0.061203	            0.292572	          -0.7485657	             0.00177
3178500000	          -0.7018127	           0.0332947	           0.0696259	            0.283844	           0.0641479	           0.2933655	          -0.7453918	           0.0044556
3185000000	          -0.6981812	           0.0331116	           0.0730286	           0.2839508	           0.0679169	           0.2930756	          -0.7412415	           0.0043335
3191500000	          -0.6953125	           0.0347595	           0.0761108	           0.2839355	           0.0712128	           0.2927704	          -0.7383118	            0.006073
3198000000	          -0.6916199	           0.0335999	           0.0798187	           0.2830048	           0.0745239	           0.2917633	          -0.7344971	           0.0045166
3204500000	          -0.6897278	            0.034729	           0.0823364	            0.282196	           0.0769043	           0.2911682	          -0.7321167	           0.0054932
3211000000	          -0.6873474	           0.0338745	           0.0848846	           0.2811584	           0.0796051	           0.2909698	           -0.729248	           0.0038757
3217500000	            -0.68573	           0.0348816	           0.0868073	           0.2809448	           0.0821686	           0.2910919	          -0.7275085	           0.0050049
3224000000	          -0.6841125	           0.0340881	           0.0895538	           0.2807922	           0.0857697	           0.2909088	          -0.7255249	           0.0040283
3230500000	          -0.6835938	            0.035614	           0.0921936	           0.2811737	           0.0888672	           0.2906036	          -0.7244263	           0.0055847
3237000000	          -0.6826172	            0.035675	           0.0956268	           0.2803955	           0.0923462	           0.2894745	          -0.7227173	           0.0053711
3243500000	          -0.6821289	           0.0382996	            0.098053	           0.2795563	           0.0945587	           0.2887115	          -0.7219543	           0.0076599
3250000000	          -0.6803284	           0.0392151	           0.1003723	           0.2783203	           0.0968323	           0.2883148	          -0.7205811	           0.0080566
3256500000	          -0.6790466	           0.0422363	           0.1020508	           0.2784271	           0.0990906	           0.2885132	          -0.7195129	           0.0111084
3263000000	          -0.6771851	           0.0436707	           0.1044312	           0.2788849	            0.102417	           0.2886658	          -0.7171631	           0.0123291
3269500000	          -0.6751404	           0.0463562	           0.1071014	           0.2795868	           0.1054993	           0.2886047	          -0.7153931	           0.0153809
3276000000	          -0.6729736	           0.0473022	           0.1106873	           0.2798004	           0.1091614	           0.2880402	          -0.7124939	           0.0163879
3282500000	          -0.6707764	           0.0495911	           0.1140137	           0.2796631	           0.1119995	           0.2875366	          -0.7096558	           0.0191956
3289000000	          -0.6673279	           0.0497437	           0.1176605	           0.2788696	           0.1151733	            0.286972	          -0.7062988	           0.0195007
3295500000	          -0.6646118	           0.0518494	           0.1206665	           0.2783203	           0.1182556	           0.2866974	          -0.7030029	            0.021698
3302000000	          -0.6607971	           0.0509949	           0.1240997	           0.2773743	           0.1220093	           0.2861633	          -0.6991272	           0.0213928
3308500000	          -0.6576233	            0.052063	           0.1271667	           0.2767334	            0.125351	           0.2853851	          -0.6961975	           0.0228882
3315000000	          -0.6543884	           0.0510254	           0.1307373	           0.2756653	           0.1292267	           0.2840118	          -0.6922607	           0.0219727
