! 
! FILENAME MUT_20mm_TGW
# Hz S RI R 50
2600000000	          -0.7467651	          -0.1641541	          -0.1317825	           0.2314606	          -0.1347122	           0.2280121	          -0.7806396	          -0.1828918
2606500000	            -0.74823	          -0.1616821	          -0.1292267	           0.2326965	           -0.132576	           0.2294235	          -0.7804565	          -0.1809692
2613000000	          -0.7495117	          -0.1586914	          -0.1266479	           0.2340164	          -0.1303635	           0.2308197	          -0.7807922	          -0.1785889
2619500000	           -0.750885	          -0.1550903	          -0.1240158	           0.2352066	          -0.1281052	           0.2321396	          -0.7807617	          -0.1761475
2626000000	          -0.7524719	          -0.1513977	          -0.1213379	           0.2365799	          -0.1258087	            0.233696	          -0.7814941	          -0.1731262
2632500000	            -0.75354	          -0.1472473	          -0.1186829	           0.2377014	          -0.1234436	           0.2349854	          -0.7814941	          -0.1700134
2639000000	          -0.7544861	          -0.1430664	          -0.1159821	           0.2388382	          -0.1210098	           0.2362976	          -0.7816772	          -0.1668701
2645500000	          -0.7553101	          -0.1387939	           -0.113327	           0.2398758	          -0.1186523	           0.2375183	          -0.7816772	          -0.1636658
2652000000	          -0.7564087	          -0.1343689	          -0.1106567	           0.2410583	          -0.1162186	           0.2388535	           -0.782135	          -0.1604614
2658500000	          -0.7572021	          -0.1300049	          -0.1080399	           0.2420349	          -0.1138153	           0.2400513	          -0.7822876	          -0.1573486
2665000000	           -0.757843	          -0.1256409	          -0.1054688	           0.2429504	          -0.1114197	           0.2411499	          -0.7823792	          -0.1541748
2671500000	          -0.7583313	          -0.1213074	          -0.1028976	           0.2438278	          -0.1090851	           0.2422333	          -0.7825317	          -0.1512756
2678000000	          -0.7591248	          -0.1170044	          -0.1004105	            0.244812	          -0.1067429	           0.2434158	            -0.78302	          -0.1484985
2684500000	          -0.7595215	          -0.1127319	          -0.0979767	           0.2456207	           -0.104454	           0.2444458	          -0.7832336	          -0.1457214
2691000000	          -0.7597961	          -0.1087341	          -0.0955353	           0.2464218	          -0.1021423	           0.2454147	          -0.7833557	          -0.1431274
2697500000	          -0.7601624	          -0.1046448	          -0.0932541	           0.2471924	          -0.0999603	            0.246376	          -0.7838135	          -0.1407166
2704000000	          -0.7605286	          -0.1007996	          -0.0909271	           0.2479706	          -0.0977554	           0.2473907	          -0.7842407	          -0.1385193
2710500000	          -0.7607422	          -0.0970764	          -0.0886993	           0.2487259	          -0.0956268	           0.2483215	          -0.7847595	          -0.1363831
2717000000	          -0.7609558	          -0.0935669	           -0.086525	           0.2494659	          -0.0935364	           0.2492371	          -0.7853699	          -0.1343689
2723500000	          -0.7611389	          -0.0901184	          -0.0843964	           0.2501678	          -0.0914764	           0.2501221	          -0.7859192	          -0.1325684
2730000000	          -0.7613525	           -0.086792	          -0.0823212	           0.2509155	          -0.0894623	           0.2510223	          -0.7867737	           -0.131012
2736500000	          -0.7614746	          -0.0836487	          -0.0803375	           0.2516174	          -0.0875244	           0.2519226	          -0.7875671	           -0.129364
2743000000	          -0.7614136	           -0.080658	          -0.0783539	           0.2522888	          -0.0856018	           0.2527313	          -0.7883911	          -0.1279297
2749500000	          -0.7615051	          -0.0777893	          -0.0764771	           0.2529907	          -0.0837708	           0.2536011	          -0.7893982	          -0.1266479
2756000000	          -0.7616272	          -0.0751038	          -0.0746002	           0.2537384	          -0.0819244	           0.2544708	          -0.7905884	          -0.1254272
2762500000	          -0.7616577	          -0.0725403	          -0.0727997	           0.2544403	          -0.0801239	           0.2553253	           -0.791687	          -0.1242981
2769000000	          -0.7616577	          -0.0701599	          -0.0710297	           0.2551727	          -0.0783844	           0.2561951	          -0.7929993	          -0.1231995
2775500000	          -0.7615662	          -0.0678101	          -0.0692902	           0.2558899	          -0.0766754	            0.257019	          -0.7943115	          -0.1222534
2782000000	          -0.7616272	          -0.0656433	          -0.0675812	           0.2566681	          -0.0749664	           0.2579041	          -0.7958069	          -0.1213074
2788500000	          -0.7615967	          -0.0635986	           -0.065918	           0.2574158	          -0.0733337	           0.2587738	          -0.7972717	          -0.1203003
2795000000	          -0.7615662	           -0.061676	          -0.0642395	           0.2582397	          -0.0716858	           0.2596588	          -0.7988281	          -0.1193542
2801500000	          -0.7614441	          -0.0597839	          -0.0626221	           0.2590027	          -0.0700684	           0.2605286	          -0.8003845	          -0.1183777
2808000000	          -0.7614136	          -0.0581055	          -0.0609741	           0.2598724	          -0.0684357	           0.2614746	          -0.8020935	          -0.1174316
2814500000	           -0.761322	           -0.056427	          -0.0593414	           0.2606964	          -0.0668488	           0.2623596	          -0.8037415	           -0.116394
2821000000	           -0.761261	          -0.0548096	           -0.057724	           0.2615662	          -0.0652466	           0.2633057	          -0.8054504	          -0.1152954
2827500000	          -0.7611389	          -0.0533142	          -0.0561066	           0.2624359	          -0.0636444	           0.2642517	          -0.8071594	          -0.1141052
2834000000	          -0.7611084	          -0.0517883	          -0.0544434	           0.2633667	           -0.062027	           0.2652283	          -0.8088989	           -0.112915
2840500000	          -0.7608948	           -0.050354	          -0.0527954	            0.264267	          -0.0604095	           0.2661896	          -0.8105469	          -0.1115723
2847000000	          -0.7607422	          -0.0489807	          -0.0511169	           0.2651825	          -0.0587769	           0.2671661	          -0.8121338	          -0.1101074
2853500000	          -0.7605896	          -0.0476379	          -0.0494385	           0.2661438	          -0.0571289	           0.2681427	          -0.8137817	          -0.1085815
2860000000	          -0.7604065	          -0.0463257	          -0.0476837	           0.2670898	          -0.0554352	           0.2691498	          -0.8153076	          -0.1069641
2866500000	          -0.7601624	          -0.0449524	          -0.0459137	           0.2680206	          -0.0537415	           0.2701263	          -0.8167419	          -0.1051636
2873000000	          -0.7599182	          -0.0437012	          -0.0441132	           0.2689972	          -0.0520172	           0.2711639	          -0.8181458	          -0.1032715
2879500000	           -0.759613	          -0.0423584	          -0.0422821	            0.269928	          -0.0502319	           0.2721405	          -0.8193054	          -0.1012268
2886000000	          -0.7593384	          -0.0410461	            -0.04039	           0.2709045	          -0.0484161	           0.2731476	          -0.8204956	          -0.0991516
2892500000	          -0.7589111	          -0.0397339	          -0.0384674	           0.2718048	          -0.0465851	           0.2741394	          -0.8214417	          -0.0968628
2899000000	          -0.7584534	          -0.0383911	          -0.0364838	           0.2727356	           -0.044693	            0.275116	          -0.8222656	          -0.0945129
2905500000	          -0.7579346	          -0.0370483	          -0.0344849	           0.2736206	          -0.0427704	           0.2760773	           -0.822876	          -0.0920105
2912000000	          -0.7575073	          -0.0357056	          -0.0324097	           0.2745361	          -0.0407715	           0.2770691	          -0.8235168	           -0.089447
2918500000	          -0.7569275	          -0.0343323	          -0.0302887	           0.2753906	          -0.0387573	           0.2779999	           -0.823822	          -0.0868225
2925000000	          -0.7563782	          -0.0329285	          -0.0281372	           0.2762604	          -0.0366821	           0.2789612	          -0.8240356	          -0.0840454
2931500000	          -0.7556763	          -0.0315247	          -0.0259247	           0.2770538	          -0.0345764	           0.2798309	          -0.8240051	          -0.0812683
2938000000	          -0.7549744	          -0.0300598	          -0.0236664	           0.2778473	          -0.0324097	           0.2807312	          -0.8238831	          -0.0783997
2944500000	          -0.7542419	          -0.0285645	          -0.0213776	            0.278595	          -0.0302124	           0.2816162	          -0.8235168	          -0.0754395
2951000000	           -0.753418	          -0.0270996	           -0.019043	           0.2793121	          -0.0279541	           0.2824402	           -0.822998	          -0.0724792
2957500000	          -0.7525635	          -0.0255737	          -0.0166931	           0.2799683	          -0.0256958	           0.2832336	          -0.8222351	          -0.0694885
2964000000	           -0.751709	          -0.0240784	          -0.0142822	           0.2806244	          -0.0233459	           0.2840271	          -0.8214111	          -0.0664978
2970500000	          -0.7507324	          -0.0224915	          -0.0118256	           0.2812347	          -0.0209808	           0.2847748	          -0.8203735	           -0.063446
2977000000	          -0.7497253	          -0.0209656	          -0.0093536	           0.2817688	          -0.0185852	           0.2854919	          -0.8191223	          -0.0604858
2983500000	          -0.7487183	          -0.0193481	          -0.0068665	           0.2822876	          -0.0161438	           0.2861633	           -0.817749	          -0.0574951
2990000000	          -0.7476501	          -0.0177307	          -0.0043335	           0.2827759	          -0.0136566	           0.2868195	          -0.8162231	          -0.0545654
2996500000	          -0.7464905	          -0.0161438	          -0.0018005	           0.2831879	          -0.0111694	           0.2874451	          -0.8145447	          -0.0516357
3003000000	          -0.7453003	          -0.0145264	           0.0007629	           0.2835693	          -0.0086517	           0.2880096	          -0.8127136	          -0.0487976
3009500000	          -0.7441101	          -0.0129089	           0.0033264	            0.283905	          -0.0061035	           0.2885437	           -0.810791	          -0.0459595
3016000000	          -0.7429199	           -0.011261	           0.0059357	           0.2842255	          -0.0034943	           0.2890625	          -0.8087463	          -0.0432434
3022500000	          -0.7416077	          -0.0096436	           0.0085449	           0.2844849	           -0.000885	           0.2895508	          -0.8065491	          -0.0406189
3029000000	          -0.7402954	          -0.0079956	           0.0111542	           0.2846832	           0.0017395	            0.289978	          -0.8042908	          -0.0380249
3035500000	          -0.7389221	          -0.0063171	           0.0137634	           0.2848663	            0.004364	           0.2903595	          -0.8018799	          -0.0355225
3042000000	          -0.7375793	          -0.0046692	           0.0163727	           0.2850037	           0.0070343	            0.290741	          -0.7995605	          -0.0331116
3048500000	          -0.7361145	          -0.0030518	           0.0189972	           0.2851105	           0.0097046	           0.2910767	          -0.7969666	          -0.0307312
3055000000	          -0.7346802	          -0.0014038	           0.0216217	            0.285202	           0.0123901	           0.2913818	          -0.7944641	          -0.0285339
3061500000	          -0.7331848	           0.0002441	           0.0242157	           0.2852325	           0.0150909	           0.2916565	          -0.7918396	          -0.0263672
3068000000	          -0.7316895	           0.0018921	           0.0268402	           0.2852478	            0.017807	           0.2919006	          -0.7892456	          -0.0243225
3074500000	          -0.7301331	           0.0035095	           0.0294495	           0.2852631	           0.0205383	           0.2921143	          -0.7866211	          -0.0223083
3081000000	          -0.7286072	            0.005127	           0.0320282	           0.2852325	           0.0232391	           0.2923126	           -0.783905	          -0.0204163
3087500000	          -0.7269592	           0.0067444	           0.0346375	           0.2851563	           0.0259857	             0.29245	          -0.7812195	          -0.0185852
3094000000	          -0.7254333	           0.0083313	           0.0372314	           0.2850952	           0.0287323	           0.2926025	           -0.778595	          -0.0169067
3100500000	          -0.7237549	           0.0099487	           0.0398102	           0.2849884	           0.0314941	           0.2926941	          -0.7758789	          -0.0152283
3107000000	          -0.7220764	           0.0115051	           0.0423737	           0.2848663	           0.0342407	           0.2927704	          -0.7731323	          -0.0136719
3113500000	          -0.7203979	           0.0131226	           0.0449524	           0.2847595	           0.0370178	           0.2928314	          -0.7705078	           -0.012146
3120000000	           -0.718689	            0.014679	           0.0475311	           0.2846069	           0.0397949	           0.2928772	          -0.7678223	          -0.0107422
3126500000	          -0.7169495	           0.0162354	           0.0500946	           0.2844543	            0.042572	           0.2928772	          -0.7651672	          -0.0093384
3133000000	          -0.7151489	           0.0177612	           0.0526581	           0.2842865	           0.0453491	           0.2928772	          -0.7625732	          -0.0079651
3139500000	          -0.7133179	           0.0192871	           0.0552216	           0.2840881	           0.0481567	           0.2928314	          -0.7599182	          -0.0067139
3146000000	          -0.7115784	           0.0207825	           0.0578003	           0.2839355	           0.0509644	           0.2928009	          -0.7574158	          -0.0054932
3152500000	          -0.7096252	           0.0223083	           0.0603638	           0.2837219	            0.053772	           0.2927094	          -0.7547913	          -0.0042419
3159000000	          -0.7077637	           0.0237732	           0.0629425	           0.2835236	           0.0565948	           0.2926178	          -0.7522278	          -0.0031128
3165500000	          -0.7058716	            0.025238	           0.0655212	           0.2833405	           0.0594177	            0.292511	          -0.7497864	          -0.0019836
3172000000	          -0.7038879	           0.0266418	           0.0681152	           0.2831116	           0.0622711	           0.2923584	          -0.7472534	           -0.000885
3178500000	          -0.7019653	           0.0280762	           0.0707092	           0.2828979	           0.0651398	           0.2922211	           -0.744873	           0.0002136
3185000000	          -0.6999817	           0.0294495	           0.0733032	           0.2826691	           0.0679932	            0.292038	          -0.7423706	           0.0013123
3191500000	           -0.697937	           0.0308533	            0.075943	           0.2824249	           0.0708771	           0.2918243	          -0.7399597	           0.0023499
3198000000	          -0.6958923	           0.0321655	           0.0785828	            0.282196	           0.0737762	           0.2916107	          -0.7375793	           0.0033569
3204500000	          -0.6937866	           0.0334778	           0.0812378	           0.2819366	           0.0766754	           0.2913513	          -0.7351685	           0.0043945
3211000000	          -0.6916809	           0.0347595	           0.0839081	           0.2816925	           0.0796051	           0.2910919	          -0.7327576	           0.0054016
3217500000	          -0.6895447	           0.0360413	           0.0865936	           0.2814026	           0.0825348	           0.2907867	          -0.7304077	           0.0064087
3224000000	          -0.6874084	           0.0372314	            0.089325	           0.2811279	           0.0855103	           0.2904663	          -0.7280273	           0.0074158
3230500000	          -0.6851807	           0.0384216	           0.0920715	           0.2808228	           0.0884705	           0.2901154	           -0.725647	           0.0083618
3237000000	          -0.6829834	           0.0395813	           0.0948486	           0.2805023	           0.0914459	           0.2897339	          -0.7232971	           0.0093689
3243500000	          -0.6807556	           0.0406494	            0.097641	           0.2801666	           0.0944519	           0.2893372	          -0.7209778	           0.0103455
3250000000	          -0.6785278	           0.0417175	           0.1004791	           0.2798309	           0.0974884	           0.2889099	          -0.7186584	           0.0112915
3256500000	          -0.6762085	           0.0427246	           0.1033173	           0.2794342	           0.1004944	           0.2884369	           -0.716217	           0.0122681
3263000000	          -0.6738892	           0.0437012	           0.1062012	           0.2790222	           0.1035461	           0.2879333	          -0.7138367	           0.0132141
3269500000	          -0.6716003	           0.0446472	           0.1091156	           0.2786102	           0.1065979	           0.2873993	          -0.7114563	           0.0141602
3276000000	          -0.6692505	           0.0455017	           0.1120453	           0.2781372	           0.1096802	           0.2868347	          -0.7090454	           0.0150452
3282500000	          -0.6668701	           0.0463562	           0.1150208	           0.2776337	           0.1127777	           0.2862396	           -0.706665	           0.0159607
3289000000	          -0.6645508	           0.0471191	           0.1179962	           0.2771149	           0.1158752	           0.2855988	          -0.7042236	           0.0168457
3295500000	          -0.6622009	           0.0478821	           0.1210327	           0.2765503	            0.118988	           0.2849426	          -0.7018127	           0.0177612
3302000000	          -0.6598511	           0.0485229	           0.1240845	           0.2759552	           0.1221161	           0.2842102	          -0.6994019	           0.0185852
3308500000	          -0.6574707	           0.0491638	           0.1271515	           0.2753143	           0.1252441	           0.2834778	          -0.6969299	           0.0194092
3315000000	          -0.6551208	           0.0497742	            0.130249	           0.2746429	           0.1284027	           0.2826843	           -0.694458	           0.0201721
