! 
! FILENAME PERSPEX_MUT_20mm_TG
# Hz S RI R 50
2600000000	          -0.6400452	           0.1285095	          -0.1700134	          -0.7145996	          -0.1608582	          -0.7216797	          -0.6538696	           0.1104431
2606500000	          -0.6373596	           0.1325684	           -0.175354	          -0.7154236	          -0.1662598	          -0.7230835	          -0.6515808	           0.1127319
2613000000	          -0.6347961	           0.1369324	          -0.1805115	          -0.7157288	          -0.1715393	          -0.7244263	          -0.6492615	            0.115509
2619500000	           -0.632019	           0.1412659	          -0.1860657	          -0.7164612	           -0.177124	          -0.7255554	          -0.6470032	           0.1183167
2626000000	          -0.6293335	            0.145752	          -0.1914978	            -0.71698	          -0.1828613	          -0.7266235	          -0.6448364	           0.1214905
2632500000	          -0.6264038	           0.1502991	          -0.1967773	          -0.7174377	          -0.1885376	          -0.7274475	          -0.6426697	           0.1246338
2639000000	          -0.6234436	           0.1547546	            -0.20224	          -0.7175293	          -0.1940918	          -0.7283936	          -0.6404114	           0.1278992
2645500000	          -0.6203003	           0.1591492	          -0.2075195	          -0.7175598	          -0.1995544	          -0.7286987	          -0.6380615	           0.1312256
2652000000	          -0.6170654	           0.1636353	          -0.2131348	           -0.717865	          -0.2054138	          -0.7293091	          -0.6358643	           0.1346741
2658500000	          -0.6138306	           0.1679993	          -0.2186279	          -0.7178955	          -0.2109375	          -0.7297974	           -0.633606	           0.1380615
2665000000	          -0.6105652	           0.1723633	          -0.2238159	          -0.7179565	          -0.2166443	          -0.7304382	          -0.6314087	           0.1416016
2671500000	          -0.6072388	           0.1766663	          -0.2293396	          -0.7180786	          -0.2223816	           -0.730835	          -0.6292419	           0.1450806
2678000000	          -0.6038513	           0.1809082	          -0.2347107	          -0.7183228	          -0.2279358	          -0.7313232	          -0.6270752	           0.1486816
2684500000	          -0.6003723	           0.1850281	          -0.2401123	          -0.7184143	          -0.2335205	          -0.7318115	          -0.6249084	           0.1521912
2691000000	          -0.5968323	           0.1890564	          -0.2454224	          -0.7183533	          -0.2390747	          -0.7322083	          -0.6225891	           0.1557312
2697500000	          -0.5933838	           0.1930542	          -0.2507629	          -0.7185669	          -0.2446594	           -0.732605	          -0.6204224	           0.1592712
2704000000	          -0.5896301	           0.1968994	          -0.2559814	          -0.7187195	          -0.2500916	          -0.7329102	           -0.618103	           0.1627808
2710500000	          -0.5859985	           0.2006531	          -0.2613831	          -0.7189026	          -0.2556152	          -0.7333679	          -0.6158752	           0.1662903
2717000000	          -0.5823059	           0.2042847	           -0.266571	          -0.7189941	          -0.2611694	          -0.7337646	          -0.6136169	           0.1698914
2723500000	          -0.5785828	           0.2078247	          -0.2719727	          -0.7191162	           -0.266571	          -0.7341309	          -0.6113281	           0.1734314
2730000000	          -0.5748596	           0.2113037	          -0.2772217	          -0.7195129	          -0.2721252	          -0.7346191	          -0.6090698	           0.1769714
2736500000	          -0.5710449	           0.2145691	          -0.2824707	          -0.7197266	          -0.2775879	          -0.7349854	           -0.606781	           0.1805115
2743000000	          -0.5671997	           0.2177734	          -0.2876282	          -0.7198792	          -0.2829895	          -0.7353821	          -0.6043396	            0.184021
2749500000	          -0.5634155	           0.2208862	          -0.2929688	          -0.7200928	          -0.2884216	          -0.7358398	          -0.6020203	              0.1875
2756000000	          -0.5595093	           0.2238159	          -0.2981873	          -0.7204285	          -0.2939148	          -0.7362976	          -0.5995483	             0.19104
2762500000	          -0.5556335	           0.2267151	          -0.3034973	          -0.7206116	          -0.2993164	          -0.7366943	          -0.5970459	           0.1944885
2769000000	          -0.5517273	           0.2294312	          -0.3086853	          -0.7208252	           -0.304718	          -0.7371216	          -0.5944519	            0.197998
2775500000	          -0.5479126	           0.2321167	          -0.3139954	          -0.7211304	          -0.3101501	          -0.7375793	          -0.5919495	           0.2014465
2782000000	          -0.5440063	           0.2346497	          -0.3192749	           -0.721405	          -0.3155823	          -0.7380066	          -0.5892639	           0.2049255
2788500000	          -0.5400391	           0.2370605	          -0.3245239	          -0.7215576	          -0.3210449	          -0.7384338	          -0.5865479	            0.208374
2795000000	          -0.5361633	           0.2393799	          -0.3298645	          -0.7218323	          -0.3265381	             -0.7388	          -0.5837708	            0.211853
2801500000	          -0.5322876	           0.2416077	          -0.3352051	          -0.7219849	          -0.3319702	          -0.7391968	          -0.5809021	           0.2152405
2808000000	          -0.5282898	           0.2437134	          -0.3404846	          -0.7221375	          -0.3374023	          -0.7394714	          -0.5779114	           0.2186279
2814500000	          -0.5244141	           0.2457581	          -0.3458557	            -0.72229	           -0.342926	          -0.7398682	          -0.5749207	           0.2220154
2821000000	          -0.5204773	           0.2477112	          -0.3511963	            -0.72229	          -0.3484497	          -0.7400818	          -0.5717468	           0.2253723
2827500000	          -0.5166016	           0.2495422	          -0.3566589	          -0.7223511	          -0.3540039	          -0.7402954	          -0.5686035	           0.2287292
2834000000	          -0.5126953	           0.2513123	          -0.3620911	          -0.7223206	          -0.3595886	           -0.740448	          -0.5652771	           0.2319946
2840500000	          -0.5087891	           0.2530212	          -0.3674927	          -0.7222595	          -0.3651428	          -0.7406006	          -0.5618591	           0.2352295
2847000000	          -0.5049133	           0.2546387	          -0.3729248	          -0.7221069	          -0.3708191	          -0.7406616	          -0.5583801	           0.2384949
2853500000	          -0.5010986	           0.2562256	           -0.378418	          -0.7218628	          -0.3764038	          -0.7406311	          -0.5547791	           0.2416687
2860000000	          -0.4971466	           0.2576599	          -0.3838806	          -0.7215576	          -0.3820801	           -0.740509	          -0.5510254	           0.2447815
2866500000	          -0.4933472	           0.2590942	          -0.3894043	          -0.7211914	          -0.3877563	          -0.7403564	          -0.5472107	           0.2478638
2873000000	          -0.4895172	            0.260437	          -0.3948975	          -0.7207336	          -0.3934937	          -0.7401428	          -0.5433044	           0.2509155
2879500000	           -0.485672	            0.261795	          -0.4004822	          -0.7202454	           -0.399231	          -0.7398682	          -0.5393372	           0.2538757
2886000000	          -0.4818573	           0.2630768	          -0.4060059	           -0.719574	          -0.4049988	          -0.7394104	          -0.5351868	           0.2567749
2892500000	          -0.4779816	           0.2642822	          -0.4114685	          -0.7188721	          -0.4107361	          -0.7388611	          -0.5309753	           0.2595825
2899000000	          -0.4742126	           0.2654724	          -0.4170227	          -0.7180481	          -0.4165039	          -0.7382507	          -0.5266418	           0.2623596
2905500000	          -0.4704285	           0.2666321	          -0.4225464	          -0.7171631	          -0.4223022	          -0.7375488	          -0.5222473	           0.2650452
2912000000	           -0.466568	           0.2677002	          -0.4280701	           -0.716095	           -0.428009	          -0.7366638	          -0.5176697	           0.2675781
2918500000	          -0.4627686	           0.2687836	          -0.4335938	          -0.7150269	          -0.4338379	          -0.7357788	          -0.5131226	           0.2701111
2925000000	          -0.4589539	           0.2698364	          -0.4390259	          -0.7137756	          -0.4396057	          -0.7347107	          -0.5083923	           0.2724915
2931500000	          -0.4551544	           0.2708588	          -0.4445496	          -0.7124634	          -0.4454041	           -0.733551	          -0.5036316	           0.2748108
2938000000	           -0.451355	           0.2718658	          -0.4500122	          -0.7110901	          -0.4512329	          -0.7322998	          -0.4988098	           0.2769775
2944500000	          -0.4475555	           0.2728577	          -0.4554749	          -0.7095642	          -0.4569702	           -0.730896	          -0.4939117	           0.2790833
2951000000	          -0.4437561	            0.273819	          -0.4608459	          -0.7080078	          -0.4627686	          -0.7294617	          -0.4889374	           0.2810822
2957500000	          -0.4399414	           0.2747498	          -0.4662781	          -0.7063293	          -0.4685059	          -0.7279053	          -0.4839172	           0.2829742
2964000000	          -0.4360962	           0.2756653	          -0.4716797	          -0.7045898	          -0.4742737	          -0.7262573	          -0.4788818	            0.284729
2970500000	          -0.4322815	           0.2765656	          -0.4770203	          -0.7026978	            -0.47995	          -0.7244263	          -0.4737549	           0.2863922
2977000000	          -0.4284058	           0.2774353	          -0.4822693	          -0.7007751	          -0.4856567	          -0.7225647	          -0.4685822	           0.2879181
2983500000	          -0.4245758	           0.2783203	          -0.4875793	           -0.698761	           -0.491333	          -0.7205811	          -0.4634247	           0.2893677
2990000000	          -0.4206848	           0.2791443	          -0.4927979	          -0.6967163	          -0.4970093	          -0.7185669	          -0.4582062	           0.2906647
2996500000	          -0.4167938	           0.2799683	          -0.4979553	          -0.6945801	           -0.502533	          -0.7163696	          -0.4530029	           0.2918854
3003000000	          -0.4129181	           0.2808075	          -0.5031128	          -0.6923828	          -0.5081482	          -0.7141418	          -0.4477844	           0.2929688
3009500000	          -0.4089966	           0.2815857	          -0.5082397	           -0.690094	          -0.5136719	           -0.711853	          -0.4425507	           0.2939606
3016000000	          -0.4049835	           0.2823181	          -0.5133057	          -0.6877747	          -0.5191345	          -0.7094727	          -0.4372711	           0.2947845
3022500000	          -0.4010162	           0.2830353	          -0.5183105	          -0.6853638	          -0.5245667	          -0.7069397	          -0.4320374	           0.2955475
3029000000	           -0.397049	            0.283783	          -0.5233459	          -0.6829834	          -0.5300598	          -0.7044678	          -0.4268341	           0.2962189
3035500000	          -0.3930511	           0.2844391	          -0.5283203	          -0.6804504	          -0.5354004	          -0.7018127	          -0.4216309	           0.2967682
3042000000	          -0.3890228	           0.2850952	          -0.5332336	           -0.677948	          -0.5407715	          -0.6991272	          -0.4164734	            0.297226
3048500000	           -0.384964	           0.2857056	           -0.538147	          -0.6753845	          -0.5461121	          -0.6963501	          -0.4113312	           0.2975922
3055000000	          -0.3809052	           0.2863312	          -0.5430298	          -0.6728516	          -0.5513916	           -0.693634	          -0.4062195	           0.2978668
3061500000	          -0.3768463	           0.2868958	          -0.5479126	          -0.6702271	          -0.5566101	          -0.6908264	          -0.4011383	           0.2980499
3068000000	          -0.3727264	           0.2873993	          -0.5526733	          -0.6675415	          -0.5618286	          -0.6878967	          -0.3961029	            0.298172
3074500000	          -0.3686218	           0.2878723	          -0.5574951	           -0.664917	          -0.5670166	          -0.6850281	          -0.3911133	           0.2982025
3081000000	          -0.3644562	           0.2883148	          -0.5622253	          -0.6622009	          -0.5721741	          -0.6820679	          -0.3861542	           0.2981415
3087500000	          -0.3602905	           0.2886963	          -0.5670471	          -0.6594238	          -0.5772705	          -0.6790161	          -0.3812256	           0.2980347
3094000000	          -0.3560944	           0.2890472	          -0.5717468	          -0.6567078	          -0.5823059	          -0.6759644	           -0.376358	           0.2978516
3100500000	          -0.3519135	           0.2893677	          -0.5764771	          -0.6539612	          -0.5874023	          -0.6729126	          -0.3715668	           0.2976379
3107000000	          -0.3477173	           0.2896118	          -0.5812073	          -0.6511536	          -0.5924072	          -0.6698303	          -0.3667603	           0.2973328
3113500000	          -0.3434601	           0.2898102	          -0.5858459	          -0.6483154	          -0.5973816	          -0.6665955	          -0.3619995	           0.2969666
3120000000	          -0.3392334	           0.2899475	          -0.5905457	          -0.6454773	           -0.602356	          -0.6634827	          -0.3573303	           0.2965851
3126500000	          -0.3349762	           0.2900391	          -0.5952148	          -0.6426392	          -0.6072998	          -0.6602478	          -0.3526764	           0.2961273
3133000000	           -0.330719	           0.2900696	           -0.599884	           -0.639801	          -0.6122131	          -0.6570435	          -0.3480835	           0.2956543
3139500000	          -0.3264771	           0.2900543	          -0.6045532	          -0.6368408	           -0.617157	          -0.6537476	          -0.3435059	            0.295166
3146000000	          -0.3222046	           0.2899628	          -0.6092224	          -0.6339417	          -0.6220398	          -0.6504822	          -0.3390045	           0.2946014
3152500000	          -0.3179321	           0.2898407	          -0.6138916	          -0.6309814	          -0.6269226	          -0.6471558	          -0.3345184	           0.2940063
3159000000	          -0.3137054	           0.2896576	          -0.6185913	          -0.6280518	          -0.6318054	          -0.6438293	          -0.3300781	           0.2934113
3165500000	           -0.309433	           0.2893982	            -0.62323	          -0.6250305	          -0.6366577	          -0.6404419	          -0.3256836	           0.2927856
3172000000	           -0.305191	           0.2890625	          -0.6279297	          -0.6219788	          -0.6414795	          -0.6370239	          -0.3213196	           0.2921143
3178500000	          -0.3009644	           0.2886963	          -0.6325989	           -0.618927	          -0.6463318	           -0.633606	          -0.3169556	           0.2914276
3185000000	          -0.2967224	           0.2882538	          -0.6372986	          -0.6158142	          -0.6511536	          -0.6301575	          -0.3126373	           0.2907257
3191500000	          -0.2924957	           0.2877502	          -0.6419678	          -0.6126709	          -0.6559448	          -0.6265869	          -0.3083496	            0.289978
3198000000	          -0.2883148	           0.2872009	           -0.646698	          -0.6094971	          -0.6607971	          -0.6230469	          -0.3041077	           0.2892303
3204500000	          -0.2841492	           0.2865753	          -0.6513367	          -0.6062927	          -0.6655579	          -0.6195068	           -0.299881	           0.2884827
3211000000	          -0.2799835	           0.2859039	          -0.6560669	          -0.6030273	          -0.6703796	          -0.6159058	          -0.2956696	           0.2877045
3217500000	          -0.2758789	           0.2851868	          -0.6607971	          -0.5997009	          -0.6751709	          -0.6122131	          -0.2914734	           0.2868805
3224000000	          -0.2717743	           0.2843933	          -0.6654663	          -0.5963745	          -0.6799316	           -0.608551	          -0.2873077	           0.2860565
3230500000	          -0.2677002	           0.2835388	          -0.6701355	          -0.5929565	          -0.6846619	          -0.6047974	          -0.2831421	            0.285202
3237000000	          -0.2636566	           0.2826538	          -0.6748962	          -0.5894775	          -0.6894531	          -0.6010132	          -0.2789917	           0.2843475
3243500000	          -0.2596588	           0.2817078	          -0.6795959	          -0.5860291	          -0.6942139	          -0.5971985	          -0.2748718	           0.2834473
3250000000	          -0.2556763	           0.2807007	          -0.6842651	          -0.5823975	          -0.6989441	          -0.5932922	          -0.2707672	           0.2825317
3256500000	          -0.2517242	           0.2796478	          -0.6889343	          -0.5787659	          -0.7036438	           -0.589325	          -0.2666473	           0.2815704
3263000000	           -0.247818	            0.278595	          -0.6936646	          -0.5751343	          -0.7084045	          -0.5853882	          -0.2625732	           0.2806396
3269500000	          -0.2439728	           0.2774811	          -0.6983337	          -0.5714111	          -0.7131042	          -0.5813599	          -0.2584839	           0.2796478
3276000000	          -0.2401123	           0.2762756	          -0.7029419	          -0.5675659	          -0.7177429	          -0.5772705	          -0.2544098	           0.2786255
3282500000	          -0.2363586	           0.2751007	          -0.7076416	          -0.5637512	          -0.7224426	          -0.5731506	           -0.250351	           0.2775726
3289000000	          -0.2325897	           0.2738647	          -0.7122803	          -0.5597839	          -0.7270813	          -0.5689392	          -0.2463074	           0.2765045
3295500000	          -0.2288818	            0.272583	          -0.7168884	          -0.5558472	            -0.73172	          -0.5647278	          -0.2422943	           0.2753906
3302000000	          -0.2252197	           0.2712708	          -0.7214966	          -0.5518188	          -0.7363586	          -0.5604248	          -0.2382813	           0.2742462
3308500000	          -0.2216034	           0.2699738	          -0.7261047	          -0.5477905	          -0.7409668	          -0.5560913	          -0.2342834	           0.2730713
3315000000	          -0.2180023	           0.2686157	          -0.7306824	          -0.5436401	          -0.7454834	          -0.5516968	          -0.2302551	           0.2718658
